Title: C:\Users\georg\AppData\Local\LTspice\examples\Educational\stepAC.net
Date: Thu Jul  9 01:02:26 2026
Plotname: AC Analysis
Flags: complex forward log
No. Variables: 11
No. Points:           51
Offset:    0.0000000000000000e+00
Command: Linear Technology Corporation LTspice
Variables:
	0	frequency	frequency
	1	V(in)	voltage
	2	V(out)	voltage
	3	I(C1)	device_current
	4	I(C2)	device_current
	5	I(C3)	device_current
	6	I(I1)	device_current
	7	I(L1)	device_current
	8	I(L2)	device_current
	9	I(R1)	device_current
	10	I(R2)	device_current
Values:
0		5.000000000000000e+06,0.000000000000000e+00
	1.101157292913447e-01,3.699441723106283e-01
	-6.360244949258684e-02,-1.099725711070864e-01
	1.451053890242896e-03,-8.392145499201522e-04
	-4.881298354671592e-03,1.452942817982759e-03
	2.261554373183745e-03,-8.186276313938966e-04
	5.000000000000000e-03,0.000000000000000e+00
	-3.500600098451351e-03,2.024417418337670e-03
	1.177580029688419e-02,-3.504717690412083e-03
	-2.120081649752895e-04,-3.665752370236213e-04
	3.670524309711492e-04,1.233147241035428e-03
1		5.069797398950146e+06,0.000000000000000e+00
	1.256966477014625e-01,3.900157748473405e-01
	-7.602227667677550e-02,-1.216466438975981e-01
	1.627495868325780e-03,-1.017092927745081e-03
	-5.217974304989905e-03,1.681680383790436e-03
	2.444810776184173e-03,-9.638476112626844e-04
	5.000000000000000e-03,0.000000000000000e+00
	-3.818899055587368e-03,2.386429351999760e-03
	1.224379625550254e-02,-3.945580577877588e-03
	-2.534075889225850e-04,-4.054888129919938e-04
	4.189888256715417e-04,1.300052582824468e-03
2		5.140569133280331e+06,0.000000000000000e+00
	1.448307759442246e-01,4.119091756795049e-01
	-9.168634346412909e-02,-1.346558605939208e-01
	1.826693244944249e-03,-1.243784143674502e-03
	-5.587812557326413e-03,1.964722507512556e-03
	2.648037786525236e-03,-1.145895232566806e-03
	5.000000000000000e-03,0.000000000000000e+00
	-4.169109886589055e-03,2.838532244887711e-03
	1.275308109070424e-02,-4.483648325677712e-03
	-3.056211448804303e-04,-4.488528686464027e-04
	4.827692531474155e-04,1.373030585598350e-03
3		5.212328804205606e+06,0.000000000000000e+00
	1.686251908709409e-01,4.356306910837411e-01
	-1.116608805481837e-01,-1.489642650052583e-01
	2.049005201874757e-03,-1.535896713759290e-03
	-5.992105234737825e-03,2.319441466377761e-03
	2.871825155933065e-03,-1.376906492906090e-03
	5.000000000000000e-03,0.000000000000000e+00
	-4.548627422647210e-03,3.409350756682908e-03
	1.330184642110109e-02,-5.148450262896321e-03
	-3.722029351606123e-04,-4.965475500175277e-04
	5.620839695698030e-04,1.452102303612470e-03
4		5.285090202806901e+06,0.000000000000000e+00
	1.985922085958070e-01,4.609653211531575e-01
	-1.374104909301126e-01,-1.643099427686458e-01
	2.291634791792481e-03,-1.916467478879924e-03
	-6.429094612075716e-03,2.769770392031961e-03
	3.114546215667213e-03,-1.673656382468530e-03
	5.000000000000000e-03,0.000000000000000e+00
	-4.948146037692652e-03,4.137823670577274e-03
	1.388166679909024e-02,-5.979977845011017e-03
	-4.580349697670422e-04,-5.476998092288195e-04
	6.619740286526902e-04,1.536551070510525e-03
5		5.358867312681464e+06,0.000000000000000e+00
	2.367816066711032e-01,4.872437579163283e-01
	-1.709289664625219e-01,-1.799714706084425e-01
	2.545105726378921e-03,-2.417229185698434e-03
	-6.890463661950312e-03,3.348498631491187e-03
	3.369846210117583e-03,-2.059188506139150e-03
	5.000000000000000e-03,0.000000000000000e+00
	-5.345188714954765e-03,5.076322593865725e-03
	1.447103784983088e-02,-7.031832997351431e-03
	-5.697632215417397e-04,-5.999049020281418e-04
	7.892720222370108e-04,1.624145859721094e-03
6		5.433674312630289e+06,0.000000000000000e+00
	2.858915793326966e-01,5.129032286782066e-01
	-2.148484980575181e-01,-1.943281480433278e-01
	2.786496323689006e-03,-3.080740263391472e-03
	-7.354585403661575e-03,4.099436148625177e-03
	3.621814902625208e-03,-2.564348718577375e-03
	5.000000000000000e-03,0.000000000000000e+00
	-5.692149566122488e-03,6.292849475446607e-03
	1.502342837517780e-02,-8.373462296129907e-03
	-7.161616601917270e-04,-6.477604934777595e-04
	9.529719311089887e-04,1.709677428927355e-03
7		5.509525579383052e+06,0.000000000000000e+00
	3.492083414298301e-01,5.346974649333353e-01
	-2.723771009864792e-01,-2.040693093135545e-01
	2.967023984746547e-03,-3.960171150875446e-03
	-7.774124430454019e-03,5.077243257112588e-03
	3.836124434000203e-03,-3.227648002852869e-03
	5.000000000000000e-03,0.000000000000000e+00
	-5.895224748791819e-03,7.868050184773497e-03
	1.544622105968812e-02,-1.008721614307657e-02
	-9.079236699549308e-04,-6.802310310451816e-04
	1.164027804766100e-03,1.782324883111118e-03
8		5.586435690361097e+06,0.000000000000000e+00
	4.299566466645137e-01,5.464209521828665e-01
	-3.466463974083297e-01,-2.029178880242442e-01
	2.991467548143059e-03,-5.110350095915765e-03
	-8.055477819112611e-03,6.338531157251312e-03
	3.945337631162740e-03,-4.088886161845386e-03
	5.000000000000000e-03,0.000000000000000e+00
	-5.781317187944700e-03,9.875629217841965e-03
	1.556762662806031e-02,-1.224882049303959e-02
	-1.155487991361099e-03,-6.763929600808138e-04
	1.433188822215046e-03,1.821403173942888e-03
9		5.664419426478990e+06,0.000000000000000e+00
	5.291316888866372e-01,5.373788187512099e-01
	-4.385400621512934e-01,-1.800996259211460e-01
	2.692138340030867e-03,-6.555319084748845e-03
	-8.032765829919301e-03,7.909487314541648e-03
	3.830322917839346e-03,-5.166002285460891e-03
	5.000000000000000e-03,0.000000000000000e+00
	-5.060661050699235e-03,1.232165345661356e-02
	1.509931645146986e-02,-1.486675232917324e-02
	-1.461800207170978e-03,-6.003320864038202e-04
	1.763772296288791e-03,1.791262729170700e-03
10		5.743491774985172e+06,0.000000000000000e+00
	6.405312589203100e-01,4.923100649331643e-01
	-5.417215888272312e-01,-1.202656869165015e-01
	1.822833067471833e-03,-8.210721202326313e-03
	-7.461804682763977e-03,9.708351479503347e-03
	3.315942053655648e-03,-6.399668814939165e-03
	5.000000000000000e-03,0.000000000000000e+00
	-3.333036491703376e-03,1.501127564032048e-02
	1.364264254001859e-02,-1.774905384421973e-02
	-1.805738629424104e-03,-4.008856230550050e-04
	2.135104196401034e-03,1.641033549777214e-03
11		5.823667932342277e+06,0.000000000000000e+00
	7.438902211217550e-01,3.974010120474244e-01
	-6.357631542705062e-01,-9.505658797470673e-03
	1.460857933813254e-04,-9.770597364480821e-03
	-6.107377023772114e-03,1.143232630757768e-02
	2.233379577554800e-03,-7.572472740020892e-03
	5.000000000000000e-03,0.000000000000000e+00
	-2.602548567011044e-04,1.737475563382662e-02
	1.086112253092106e-02,-2.032946908775666e-02
	-2.119210514235021e-03,-3.168552932490225e-05
	2.479634070405850e-03,1.324670040158081e-03
12		5.904963307147649e+06,0.000000000000000e+00
	8.053641073013736e-01,2.560156184215389e-01
	-6.866219976386481e-01,1.489222376017393e-01
	-2.320630068162663e-03,-1.069951458454012e-02
	-3.989448128070184e-03,1.254985281795632e-02
	5.960064499669716e-04,-8.303345500891584e-03
	5.000000000000000e-03,0.000000000000000e+00
	4.013363610324518e-03,1.850645262675924e-02
	6.900907553699244e-03,-2.170658371358637e-02
	-2.288739992128827e-03,4.964074586724644e-04
	2.684547024337912e-03,8.533853947384631e-04
13		5.987393523094639e+06,0.000000000000000e+00
	7.984950341696461e-01,1.006857236294232e-01
	-6.675970119708431e-01,3.226003842450594e-01
	-5.097201970194601e-03,-1.054827263357770e-02
	-1.590870606231229e-03,1.261650841143553e-02
	-1.252261201415490e-03,-8.273136087504723e-03
	5.000000000000000e-03,0.000000000000000e+00
	8.574786544846235e-03,1.774607410693222e-02
	2.676959290916918e-03,-2.122526357770500e-02
	-2.225323373236144e-03,1.075334614150198e-03
	2.661650113898820e-03,3.356190787647441e-04
14		6.070974421975231e+06,0.000000000000000e+00
	7.300449037376173e-01,-2.476609589302994e-02
	-5.851498312984623e-01,4.678272929843711e-01
	-7.495025534629198e-03,-9.374641011618912e-03
	3.967757415930325e-04,1.169599396399934e-02
	-2.818500455793654e-03,-7.525226777006519e-03
	5.000000000000000e-03,0.000000000000000e+00
	1.226402542808439e-02,1.534044347867753e-02
	-6.487592098454114e-04,-1.913866708802910e-02
	-1.950499437661541e-03,1.559424309947904e-03
	2.433483012458725e-03,-8.255365297676648e-05
15		6.155722066724577e+06,0.000000000000000e+00
	6.329883414159098e-01,-9.804655848110709e-02
	-4.718819743238297e-01,5.624341510715561e-01
	-9.136499715181859e-03,-7.665518738140439e-03
	1.592723969429138e-03,1.028262204569458e-02
	-3.831865601646784e-03,-6.410050279941076e-03
	5.000000000000000e-03,0.000000000000000e+00
	1.454130523124141e-02,1.220078851450966e-02
	-2.534550709128955e-03,-1.636585046403196e-02
	-1.572939914412766e-03,1.874780503571854e-03
	2.109961138053033e-03,-3.268218616036903e-04
16		6.241652744508055e+06,0.000000000000000e+00
	5.378603700720764e-01,-1.240712684838532e-01
	-3.578618790137471e-01,6.114577937724268e-01
	-1.007152526872940e-02,-5.894462371581706e-03
	2.043619246308127e-03,8.859277555051000e-03
	-4.326837326799116e-03,-5.269192830940251e-03
	5.000000000000000e-03,0.000000000000000e+00
	1.559123552557434e-02,9.125462556613867e-03
	-3.163324473347498e-03,-1.371489949104507e-02
	-1.192872930045824e-03,2.038192645908089e-03
	1.792867900240255e-03,-4.135708949461773e-04
17		6.328782969851395e+06,0.000000000000000e+00
	4.596284033461048e-01,-1.184888198001469e-01
	-2.574699381833785e-01,6.306529851854911e-01
	-1.053270249667209e-02,-4.300073613263644e-03
	1.978913154228019e-03,7.676375669641877e-03
	-4.468434161035751e-03,-4.277303315323401e-03
	5.000000000000000e-03,0.000000000000000e+00
	1.585936978498577e-02,6.475200311302073e-03
	-2.979441993084120e-03,-1.155871625229812e-02
	-8.582331272779283e-04,2.102176617284970e-03
	1.532094677820349e-03,-3.949627326671565e-04
18		6.417129487814516e+06,0.000000000000000e+00
	4.015913434152386e-01,-9.518112645304376e-02
	-1.732625583645523e-01,6.339723225637625e-01
	-1.073594455032371e-02,-2.934098466202321e-03
	1.611835815962537e-03,6.800710758729342e-03
	-4.409921559387945e-03,-3.476717580332737e-03
	5.000000000000000e-03,0.000000000000000e+00
	1.572340797092683e-02,4.297574971322516e-03
	-2.360395186734611e-03,-9.960157917551933e-03
	-5.775418612151744e-04,2.113241075212542e-03
	1.338637811384129e-03,-3.172704215101459e-04
19		6.506709277209663e+06,0.000000000000000e+00
	3.620817768662851e-01,-6.313137118242364e-02
	-1.026293701226811e-01,6.303995774709998e-01
	-1.082446585538167e-02,-1.762228517203273e-03
	1.084016227468058e-03,6.217234228278540e-03
	-4.253029315303476e-03,-2.849808123386362e-03
	5.000000000000000e-03,0.000000000000000e+00
	1.541959307109409e-02,2.510704715686302e-03
	-1.543984798992484e-03,-8.856604447723491e-03
	-3.420979004089370e-04,2.101331924903333e-03
	1.206939256220950e-03,-2.104379039414121e-04
20		6.597539553864465e+06,0.000000000000000e+00
	3.383534389775466e-01,-2.741182445464754e-02
	-4.162439537724582e-02,6.248796049017318e-01
	-1.087946430348711e-02,-7.247013986513367e-04
	4.772534794037513e-04,5.890901435160793e-03
	-4.055970636746735e-03,-2.362715297790047e-03
	5.000000000000000e-03,0.000000000000000e+00
	1.507418292482466e-02,1.004484680102277e-03
	-6.610689127423084e-04,-8.162243984768683e-03
	-1.387479845908194e-04,2.082932016339106e-03
	1.127844796591822e-03,-9.137274818215849e-05
21		6.689637773930554e+06,0.000000000000000e+00
	3.280976520712109e-01,9.244307121036202e-03
	1.358441778707111e-02,6.197942072362377e-01
	-1.094156070368917e-02,2.398130381119562e-04
	-1.631947287461675e-04,5.792084428931642e-03
	-3.849416419622501e-03,-1.982954068149888e-03
	5.000000000000000e-03,0.000000000000000e+00
	1.474569573068810e-02,-3.228396607495277e-04
	2.201194688862973e-04,-7.805852854151651e-03
	4.528139262357037e-05,2.065980690787459e-03
	1.093658840237370e-03,3.081435707012068e-05
22		6.783021637238353e+06,0.000000000000000e+00
	3.298445830340196e-01,4.526733577138041e-02
	6.638497099348330e-02,6.159802151072382e-01
	-1.102602884538543e-02,1.188289148129201e-03
	-8.102840606367443e-04,5.904208930467148e-03
	-3.648480280267389e-03,-1.684257065120695e-03
	5.000000000000000e-03,0.000000000000000e+00
	1.445322588900788e-02,-1.557299466699300e-03
	1.062321836922623e-03,-7.739357114825778e-03
	2.212832366449443e-04,2.053267383690794e-03
	1.099481943446732e-03,1.508911192379347e-04
23		6.877709090698712e+06,0.000000000000000e+00
	3.429616363206376e-01,7.947763156504435e-02
	1.197773453239185e-01,6.132485903061576e-01
	-1.113036790084515e-02,2.173940455331857e-03
	-1.442506828699162e-03,6.224701121968847e-03
	-3.459950382909282e-03,-1.446700238084639e-03
	5.000000000000000e-03,0.000000000000000e+00
	1.419106046600804e-02,-2.771402184934410e-03
	1.839350991387755e-03,-7.936326798603635e-03
	3.992578177463950e-04,2.044161967687192e-03
	1.143205454402125e-03,2.649254385501479e-04
24		6.973718331752020e+06,0.000000000000000e+00
	3.675198437214324e-01,1.105338280191735e-01
	1.764944236017578e-01,6.105364811638303e-01
	-1.123583053492483e-02,3.248063785096664e-03
	-2.034177151269523e-03,6.763544537755474e-03
	-3.286304779876896e-03,-1.255528840235289e-03
	5.000000000000000e-03,0.000000000000000e+00
	1.393382056946253e-02,-4.027656548740809e-03
	2.522806225654520e-03,-8.387519471388006e-03
	5.883147453391929e-04,2.035121603879434e-03
	1.225066145738108e-03,3.684460933972450e-04
25		7.071067811865468e+06,0.000000000000000e+00
	4.040702786309550e-01,1.364497411568483e-01
	2.390303176059420e-01,6.057941071828363e-01
	-1.130418367192591e-02,4.460331623134859e-03
	-2.546166952987922e-03,7.539995176334735e-03
	-3.127863113906423e-03,-1.099879840428527e-03
	5.000000000000000e-03,0.000000000000000e+00
	1.363527906047919e-02,-5.379765473315788e-03
	3.071402910311649e-03,-9.094707487286090e-03
	7.967677253531402e-04,2.019313690609455e-03
	1.346900928769850e-03,4.548324705228278e-04
26		7.169776240079129e+06,0.000000000000000e+00
	4.532413503843638e-01,1.540994858039808e-01
	3.094378991585711e-01,5.956805793432659e-01
	-1.127063024385041e-02,5.854748779446759e-03
	-2.915653767290771e-03,8.575595459293799e-03
	-2.983920170199870e-03,-9.717309570882284e-04
	5.000000000000000e-03,0.000000000000000e+00
	1.322309075018837e-02,-6.868619753502750e-03
	3.420929095809688e-03,-1.006099136906196e-02
	1.031459663861904e-03,1.985601931144220e-03
	1.510804501281213e-03,5.136649526799360e-04
27		7.269862586601544e+06,0.000000000000000e+00
	5.149651676275243e-01,1.587565287734810e-01
	3.887023197703553e-01,5.751994866638230e-01
	-1.103503844499773e-02,7.457143376820487e-03
	-3.045698821065960e-03,9.879460177483918e-03
	-2.853335579975632e-03,-8.651131430940823e-04
	5.000000000000000e-03,0.000000000000000e+00
	1.259269962573885e-02,-8.509361855939149e-03
	3.475812682331914e-03,-1.127376174982294e-02
	1.295674399234518e-03,1.917331622212744e-03
	1.716550558758414e-03,5.291884292449367e-04
28		7.371346086455497e+06,0.000000000000000e+00
	5.871013218028560e-01,1.439728966979779e-01
	4.754696605133546e-01,5.376255984304938e-01
	-1.045817487708118e-02,9.249085000624182e-03
	-2.800636233882858e-03,1.142060257529494e-02
	-2.734835229713686e-03,-7.755419909538410e-04
	5.000000000000000e-03,0.000000000000000e+00
	1.160811123841701e-02,-1.026562833777199e-02
	3.108796598159652e-03,-1.267605422190870e-02
	1.584898868377849e-03,1.792085328101646e-03
	1.957004406009520e-03,4.799096556599264e-04
29		7.474246243174682e+06,0.000000000000000e+00
	6.634741934046369e-01,1.025403080831547e-01
	5.641582066571448e-01,4.754880967825854e-01
	-9.378561054052789e-03,1.112749661049505e-02
	-2.022512332835479e-03,1.308641219988098e-02
	-2.627160257577611e-03,-6.996127104949749e-04
	5.000000000000000e-03,0.000000000000000e+00
	1.012519395610658e-02,-1.201284422260870e-02
	2.183771430575745e-03,-1.412782593731981e-02
	1.880527355523816e-03,1.584960322608618e-03
	2.211580644682123e-03,3.418010269438489e-04
30		7.578582832551981e+06,0.000000000000000e+00
	7.322908760771941e-01,2.953588929504040e-02
	6.434285406551089e-01,3.836253625029551e-01
	-7.672280499522105e-03,1.286819049995979e-02
	-5.907003280384950e-04,1.464538468428749e-02
	-2.529135775529861e-03,-6.347122086884637e-04
	5.000000000000000e-03,0.000000000000000e+00
	8.056654472868269e-03,-1.351222949961451e-02
	6.205949655846543e-04,-1.537854985729275e-02
	2.144761802183696e-03,1.278751208343184e-03
	2.440969586923981e-03,9.845296431680134e-05
31		7.684375906440052e+06,0.000000000000000e+00
	7.774282317822622e-01,-7.266811679989431e-02
	6.975075826630640e-01,2.641971946274477e-01
	-5.357546660829980e-03,1.414447048035330e-02
	1.473606966414130e-03,1.576514857810415e-02
	-2.439697724015753e-03,-5.788136063395912e-04
	5.000000000000000e-03,0.000000000000000e+00
	5.472219109302185e-03,-1.444631418943853e-02
	-1.504732129704090e-03,-1.610173512844410e-02
	2.325025275543547e-03,8.806573154248258e-04
	2.591427439274208e-03,-2.422270559996477e-04
32		7.791645796604988e+06,0.000000000000000e+00
	7.847816969925349e-01,-1.909316086100274e-01
	7.125638276112131e-01,1.301568928278039e-01
	-2.676242927952630e-03,1.465150145280663e-02
	3.925872507891112e-03,1.613642136756878e-02
	-2.357898369944194e-03,-5.303285409864831e-04
	5.000000000000000e-03,0.000000000000000e+00
	2.658928539192780e-03,-1.455502922124616e-02
	-3.899709867810422e-03,-1.603031121318851e-02
	2.375212758704044e-03,4.338563094260131e-04
	2.615938989975117e-03,-6.364386953667579e-04
33		7.900413118633760e+06,0.000000000000000e+00
	7.507024760484518e-01,-3.048115468197718e-01
	6.851636050654425e-01,1.784270959778317e-03
	-3.719972825267552e-05,1.428476979764589e-02
	6.354924204663383e-03,1.565116999442879e-02
	-2.282901404612878e-03,-4.880000702796069e-04
	5.000000000000000e-03,0.000000000000000e+00
	3.622244931407873e-05,-1.380271729723222e-02
	-6.140167196104433e-03,-1.512313157530916e-02
	2.283878683551475e-03,5.947569865927723e-06
	2.502341586828173e-03,-1.016038489399239e-03
34		8.010698775896209e+06,0.000000000000000e+00
	6.844747071910282e-01,-3.963832198348072e-01
	6.247621377659895e-01,-1.031381724624366e-01
	2.180313741149119e-03,1.320730667801000e-02
	8.379436636629590e-03,1.446961463372009e-02
	-2.213972462671597e-03,-4.508242698964590e-04
	5.000000000000000e-03,0.000000000000000e+00
	-2.048881737697488e-03,-1.241268849990542e-02
	-7.874991456604613e-03,-1.359916150416719e-02
	2.082540459219965e-03,-3.437939082081220e-04
	2.281582357303428e-03,-1.321277399449358e-03
35		8.122523963562342e+06,0.000000000000000e+00
	6.020263308060245e-01,-4.577653274064996e-01
	5.474246360342993e-01,-1.768529485687990e-01
	3.790813905276369e-03,1.173395716137801e-02
	9.812124607076504e-03,1.290433552072887e-02
	-2.150468107785763e-03,-4.179922711967339e-04
	5.000000000000000e-03,0.000000000000000e+00
	-3.465094584271603e-03,-1.072645506161862e-02
	-8.969347150882347e-03,-1.179644336723727e-02
	1.824748786780998e-03,-5.895098285626635e-04
	2.006754436020082e-03,-1.525884424688332e-03
36		8.235910172675718e+06,0.000000000000000e+00
	5.176311466148514e-01,-4.907754887070776e-01
	4.675359586176386e-01,-2.212855320197325e-01
	4.809431903937097e-03,1.016145219748472e-02
	1.066654142055551e-02,1.125022376419536e-02
	-2.091824827363719e-03,-3.888469881109434e-04
	5.000000000000000e-03,0.000000000000000e+00
	-4.276060271965506e-03,-9.034986769308001e-03
	-9.483803403302070e-03,-1.000315245661604e-02
	1.558453195392129e-03,-7.376184400657749e-04
	1.725437155382838e-03,-1.635918295690259e-03
37		8.350879194283680e+06,0.000000000000000e+00
	4.400158416288599e-01,-5.020406885288692e-01
	3.939133501143545e-01,-2.431570025676730e-01
	5.358560532147682e-03,8.680846155855177e-03
	1.106369707915088e-02,9.696827554106490e-03
	-2.037548766786855e-03,-3.628504993754687e-04
	5.000000000000000e-03,0.000000000000000e+00
	-4.634056265742008e-03,-7.507472314587465e-03
	-9.567965318033932e-03,-8.386209091719062e-03
	1.313044500381182e-03,-8.105233418922433e-04
	1.466719472096200e-03,-1.673468961762897e-03
38		8.467453123625256e+06,0.000000000000000e+00
	3.727977523371663e-01,-4.987327206631608e-01
	3.302485311013388e-01,-2.497214120951992e-01
	5.580045521159174e-03,7.379430627834612e-03
