Title: C:\Users\georg\AppData\Local\LTspice\examples\Educational\IGBT.net
Date: Thu Jul  9 00:58:23 2026
Plotname: DC transfer characteristic
Flags: real double forward linear
No. Variables: 12
No. Points:           51
Offset:    0.0000000000000000e+00
Command: Linear Technology Corporation LTspice
Variables:
	0	V1	voltage
	1	V(n001)	voltage
	2	V(n002)	voltage
	3	I(V1)	device_current
	4	I(V2)	device_current
	5	I(cdg:Z1)	device_current
	6	Ic(Z1)	device_current
	7	Id(m1:Z1)	device_current
	8	Ie(Z1)	device_current
	9	Ig(Z1)	device_current
	10	Ig(m1:Z1)	device_current
	11	Is(m1:Z1)	device_current
Values:
0		0.000000000000000e+00
	0.000000000000000e+00
	1.000000000000000e+01
	3.829357825316352e-32
	-6.200000000000001e-23
	0.000000000000000e+00
	-1.762973022923129e-23
	3.230854857806885e-35
	-4.437026977076872e-23
	6.200000000000001e-23
	0.000000000000000e+00
	-3.230854857806885e-35
1		5.000000000000000e-01
	5.000000000000000e-01
	1.000000000000000e+01
	-7.075208504234043e-03
	-6.199565933918152e-23
	0.000000000000000e+00
	7.074665657911637e-03
	1.274654955653033e-03
	-7.074665657911637e-03
	6.199565981070892e-23
	0.000000000000000e+00
	-1.274654955653033e-03
2		1.000000000000000e+00
	1.000000000000000e+00
	1.000000000000000e+01
	-1.519300601826584e+00
	-6.060257131986457e-23
	0.000000000000000e+00
	1.519231926825762e+00
	4.017134827961282e-01
	-1.519231926825762e+00
	6.060254413842009e-23
	0.000000000000000e+00
	-4.017134827961282e-01
3		1.500000000000000e+00
	1.500000000000000e+00
	1.000000000000000e+01
	-3.496883294708475e+00
	-5.784436720939741e-23
	0.000000000000000e+00
	3.496881025954161e+00
	1.143356928761439e+00
	-3.496881025954161e+00
	5.784436568503404e-23
	0.000000000000000e+00
	-1.143356928761439e+00
4		2.000000000000000e+00
	2.000000000000000e+00
	1.000000000000000e+01
	-5.134966702227501e+00
	-5.492163285147410e-23
	0.000000000000000e+00
	5.135112779236000e+00
	1.855039004305927e+00
	-5.135112779236000e+00
	5.492165489625518e-23
	0.000000000000000e+00
	-1.855039004305927e+00
5		2.500000000000000e+00
	2.500000000000000e+00
	1.000000000000000e+01
	-6.524774911752317e+00
	-5.194053431809764e-23
	0.000000000000000e+00
	6.524782493311300e+00
	2.502288314751475e+00
	-6.524782493311300e+00
	5.194053521096234e-23
	0.000000000000000e+00
	-2.502288314751475e+00
6		3.000000000000000e+00
	3.000000000000000e+00
	1.000000000000000e+01
	-7.707470089130055e+00
	-4.892735802419306e-23
	0.000000000000000e+00
	7.712684092123941e+00
	3.075689673477083e+00
	-7.712684092123941e+00
	4.892785975242262e-23
	0.000000000000000e+00
	-3.075689673477083e+00
7		3.500000000000000e+00
	3.500000000000000e+00
	1.000000000000000e+01
	-8.703942806567539e+00
	-4.589277420664350e-23
	0.000000000000000e+00
	8.706983765181151e+00
	3.571285428455830e+00
	-8.706983765181151e+00
	4.589303737929101e-23
	0.000000000000000e+00
	-3.571285428455830e+00
8		4.000000000000000e+00
	4.000000000000000e+00
	1.000000000000000e+01
	-9.525993305826859e+00
	-4.284218247607372e-23
	0.000000000000000e+00
	9.527806453273577e+00
	3.986506946545410e+00
	-9.527806453273577e+00
	4.284232717657729e-23
	0.000000000000000e+00
	-3.986506946545410e+00
9		4.500000000000000e+00
	4.500000000000000e+00
	1.000000000000000e+01
	-1.018062574485634e+01
	-3.977865943439127e-23
	0.000000000000000e+00
	1.018193330498903e+01
	4.319766594513505e+00
	-1.018193330498903e+01
	3.977875792868617e-23
	0.000000000000000e+00
	-4.319766594513505e+00
10		5.000000000000000e+00
	5.000000000000000e+00
	1.000000000000000e+01
	-1.067196118338313e+01
	-3.670406841834553e-23
	0.000000000000000e+00
	1.067299864565057e+01
	4.569885420059419e+00
	-1.067299864565057e+01
	3.670414343607860e-23
	0.000000000000000e+00
	-4.569885420059419e+00
11		5.500000000000000e+00
	5.500000000000000e+00
	1.000000000000000e+01
	-1.100217063744901e+01
	-3.361955031490607e-23
	0.000000000000000e+00
	1.100305527277244e+01
	4.735907619507439e+00
	-1.100305527277244e+01
	3.361961257933555e-23
	0.000000000000000e+00
	-4.735907619507439e+00
12		6.000000000000000e+00
	6.000000000000000e+00
	1.000000000000000e+01
	-1.117193893415975e+01
	-3.052576054229564e-23
	0.000000000000000e+00
	1.117274406868577e+01
	4.817004952975305e+00
	-1.117274406868577e+01
	3.052581639676629e-23
	0.000000000000000e+00
	-4.817004952975305e+00
13		6.500000000000000e+00
	6.500000000000000e+00
	1.000000000000000e+01
	-1.120533880232824e+01
	-2.742436734742449e-23
	0.000000000000000e+00
	1.120589653681567e+01
	4.825587703441381e+00
	-1.120589653681567e+01
	2.742440604587227e-23
	0.000000000000000e+00
	-4.825587703441381e+00
14		7.000000000000000e+00
	7.000000000000000e+00
	1.000000000000000e+01
	-1.122209698634964e+01
	-2.432216483204130e-23
	0.000000000000000e+00
	1.122210425208602e+01
	4.825587703441881e+00
	-1.122210425208602e+01
	2.432216544558510e-23
	0.000000000000000e+00
	-4.825587703441881e+00
15		7.500000000000000e+00
	7.500000000000000e+00
	1.000000000000000e+01
	-1.123833476342440e+01
	-2.122004610671500e-23
	0.000000000000000e+00
	1.123833462509984e+01
	4.825587703442382e+00
	-1.123833462509984e+01
	2.122004610525931e-23
	0.000000000000000e+00
	-4.825587703442382e+00
16		8.000000000000000e+00
	8.000000000000000e+00
	1.000000000000000e+01
	-1.125410653261287e+01
	-1.811800253618823e-23
	0.000000000000000e+00
	1.125410639865123e+01
	4.825587703442882e+00
	-1.125410639865123e+01
	1.811800253592675e-23
	0.000000000000000e+00
	-4.825587703442882e+00
17		8.500000000000000e+00
	8.500000000000000e+00
	1.000000000000000e+01
	-1.126945793449534e+01
	-1.501602687376775e-23
	0.000000000000000e+00
	1.126945782469473e+01
	4.825587703443382e+00
	-1.126945782469473e+01
	1.501602687363420e-23
	0.000000000000000e+00
	-4.825587703443382e+00
18		9.000000000000000e+00
	9.000000000000000e+00
	1.000000000000000e+01
	-1.128442770366576e+01
	-1.191411296711762e-23
	0.000000000000000e+00
	1.128442761258991e+01
	4.825587703443882e+00
	-1.128442761258991e+01
	1.191411296703962e-23
	0.000000000000000e+00
	-4.825587703443882e+00
19		9.500000000000000e+00
	9.500000000000000e+00
	1.000000000000000e+01
	-1.129904904722730e+01
	-8.812255539983341e-24
	0.000000000000000e+00
	1.129904897084241e+01
	4.825587703444383e+00
	-1.129904897084241e+01
	8.812255539946877e-24
	0.000000000000000e+00
	-4.825587703444383e+00
20		1.000000000000000e+01
	1.000000000000000e+01
	1.000000000000000e+01
	-1.131335068877672e+01
	-5.710450026910142e-24
	0.000000000000000e+00
	1.131335062404525e+01
	4.825587703444883e+00
	-1.131335062404525e+01
	5.710450026901512e-24
	0.000000000000000e+00
	-4.825587703444883e+00
21		1.050000000000000e+01
	1.050000000000000e+01
	1.000000000000000e+01
	-1.132735767184477e+01
	-2.608692445998271e-24
	0.000000000000000e+00
	1.132735761654970e+01
	4.825587703445383e+00
	-1.132735761654970e+01
	2.608692446013593e-24
	0.000000000000000e+00
	-4.825587703445383e+00
22		1.100000000000000e+01
	1.100000000000000e+01
	1.000000000000000e+01
	-1.134109198726424e+01
	4.930207004518779e-25
	0.000000000000000e+00
	1.134109193962534e+01
	4.825587703445884e+00
	-1.134109193962534e+01
	-4.930207004230351e-25
	0.000000000000000e+00
	-4.825587703445884e+00
23		1.150000000000000e+01
	1.150000000000000e+01
	1.000000000000000e+01
	-1.135457306941009e+01
	3.594692504577817e-24
	0.000000000000000e+00
	1.135457302803341e+01
	4.825587703446384e+00
	-1.135457302803341e+01
	-3.594692504540128e-24
	0.000000000000000e+00
	-4.825587703446384e+00
24		1.200000000000000e+01
	1.200000000000000e+01
	1.000000000000000e+01
	-1.136781819326711e+01
	6.696325715874634e-24
	0.000000000000000e+00
	1.136781815715392e+01
	4.825587703446884e+00
	-1.136781815715392e+01
	-6.696325715828416e-24
	0.000000000000000e+00
	-4.825587703446884e+00
25		1.250000000000000e+01
	1.250000000000000e+01
	1.000000000000000e+01
	-1.138084279594489e+01
	9.797922792094775e-24
	0.000000000000000e+00
	1.138084276420977e+01
	4.825587703447384e+00
	-1.138084276420977e+01
	-9.797922792044206e-24
	0.000000000000000e+00
	-4.825587703447384e+00
26		1.300000000000000e+01
	1.300000000000000e+01
	1.000000000000000e+01
	-1.139366073874032e+01
	1.289948594083384e-23
	0.000000000000000e+00
	1.139366071070133e+01
	4.825587703447885e+00
	-1.139366071070133e+01
	-1.289948594077927e-23
	0.000000000000000e+00
	-4.825587703447885e+00
27		1.350000000000000e+01
	1.350000000000000e+01
	1.000000000000000e+01
	-1.140628452324472e+01
	1.600101715378698e-23
	0.000000000000000e+00
	1.140628449830512e+01
	4.825587703448385e+00
	-1.140628449830512e+01
	-1.600101715373163e-23
	0.000000000000000e+00
	-4.825587703448385e+00
28		1.400000000000000e+01
	1.400000000000000e+01
	1.000000000000000e+01
	-1.141872547086678e+01
	1.910251823519567e-23
	0.000000000000000e+00
	1.141872544864298e+01
	4.825587703448885e+00
	-1.141872544864298e+01
	-1.910251823513839e-23
	0.000000000000000e+00
	-4.825587703448885e+00
29		1.450000000000000e+01
	1.450000000000000e+01
	1.000000000000000e+01
	-1.143099387305813e+01
	2.220399082564236e-23
	0.000000000000000e+00
	1.143099385314502e+01
	4.825587703449385e+00
	-1.143099385314502e+01
	-2.220399082558387e-23
	0.000000000000000e+00
	-4.825587703449385e+00
30		1.500000000000000e+01
	1.500000000000000e+01
	1.000000000000000e+01
	-1.144309911742039e+01
	2.530543642212401e-23
	0.000000000000000e+00
	1.144309909945311e+01
	4.825587703449886e+00
	-1.144309909945311e+01
	-2.530543642206957e-23
	0.000000000000000e+00
	-4.825587703449886e+00
31		1.550000000000000e+01
	1.550000000000000e+01
	1.000000000000000e+01
	-1.145504979518273e+01
	2.840685639503906e-23
	0.000000000000000e+00
	1.145504977902317e+01
	4.825587703450386e+00
	-1.145504977902317e+01
	-2.840685639498051e-23
	0.000000000000000e+00
	-4.825587703450386e+00
32		1.600000000000000e+01
	1.600000000000000e+01
	1.000000000000000e+01
	-1.146685379248015e+01
	3.150825200268518e-23
	0.000000000000000e+00
	1.146685377781834e+01
	4.825587703450887e+00
	-1.146685377781834e+01
	-3.150825200262942e-23
	0.000000000000000e+00
	-4.825587703450887e+00
33		1.650000000000000e+01
	1.650000000000000e+01
	1.000000000000000e+01
	-1.147851836866766e+01
	3.460962440369475e-23
	0.000000000000000e+00
	1.147851835538165e+01
	4.825587703451387e+00
	-1.147851835538165e+01
	-3.460962440363793e-23
	0.000000000000000e+00
	-4.825587703451387e+00
34		1.700000000000000e+01
	1.700000000000000e+01
	1.000000000000000e+01
	-1.149005022381311e+01
	3.771097466773999e-23
	0.000000000000000e+00
	1.149005021166575e+01
	4.825587703451887e+00
	-1.149005021166575e+01
	-3.771097466768753e-23
	0.000000000000000e+00
	-4.825587703451887e+00
35		1.750000000000000e+01
	1.750000000000000e+01
	1.000000000000000e+01
	-1.150145555711788e+01
	4.081230378482216e-23
	0.000000000000000e+00
	1.150145554599804e+01
	4.825587703452387e+00
	-1.150145554599804e+01
	-4.081230378477196e-23
	0.000000000000000e+00
	-4.825587703452387e+00
36		1.800000000000000e+01
	1.800000000000000e+01
	1.000000000000000e+01
	-1.151274011775968e+01
	4.391361267332374e-23
	0.000000000000000e+00
	1.151274010761116e+01
	4.825587703452888e+00
	-1.151274010761116e+01
	-4.391361267327444e-23
	0.000000000000000e+00
	-4.825587703452888e+00
37		1.850000000000000e+01
	1.850000000000000e+01
	1.000000000000000e+01
	-1.152390924943757e+01
	4.701490218706533e-23
	0.000000000000000e+00
	1.152390924003946e+01
	4.825587703453388e+00
	-1.152390924003946e+01
	-4.701490218701886e-23
	0.000000000000000e+00
	-4.825587703453388e+00
38		1.900000000000000e+01
	1.900000000000000e+01
	1.000000000000000e+01
	-1.153496792903570e+01
	5.011617312147335e-23
	0.000000000000000e+00
	1.153496792033524e+01
	4.825587703453888e+00
	-1.153496792033524e+01
	-5.011617312143104e-23
	0.000000000000000e+00
	-4.825587703453888e+00
39		1.950000000000000e+01
	1.950000000000000e+01
	1.000000000000000e+01
	-1.154592080082830e+01
	5.321742621904750e-23
	0.000000000000000e+00
	1.154592079279880e+01
	4.825587703454388e+00
	-1.154592079279880e+01
	-5.321742621900625e-23
	0.000000000000000e+00
	-4.825587703454388e+00
40		2.000000000000000e+01
	2.000000000000000e+01
	1.000000000000000e+01
	-1.155677220703774e+01
	5.631866217413819e-23
	0.000000000000000e+00
	1.155677219968854e+01
	4.825587703454888e+00
	-1.155677219968854e+01
	-5.631866217409204e-23
	0.000000000000000e+00
	-4.825587703454888e+00
41		2.050000000000000e+01
	2.050000000000000e+01
	1.000000000000000e+01
	-1.156752621451483e+01
	5.941988163720227e-23
	0.000000000000000e+00
	1.156752620766854e+01
	4.825587703455388e+00
	-1.156752620766854e+01
	-5.941988163716023e-23
	0.000000000000000e+00
	-4.825587703455388e+00
42		2.100000000000000e+01
	2.100000000000000e+01
	1.000000000000000e+01
	-1.157818663825856e+01
	6.252108521862556e-23
	0.000000000000000e+00
	1.157818663193504e+01
	4.825587703455889e+00
	-1.157818663193504e+01
	-6.252108521858125e-23
	0.000000000000000e+00
	-4.825587703455889e+00
43		2.150000000000000e+01
	2.150000000000000e+01
	1.000000000000000e+01
	-1.158875706320691e+01
	6.562227349204847e-23
	0.000000000000000e+00
	1.158875705725772e+01
	4.825587703456389e+00
	-1.158875705725772e+01
	-6.562227349201110e-23
	0.000000000000000e+00
	-4.825587703456389e+00
44		2.200000000000000e+01
	2.200000000000000e+01
	1.000000000000000e+01
	-1.159924086267552e+01
	6.872344699743082e-23
	0.000000000000000e+00
	1.159924085717730e+01
	4.825587703456889e+00
	-1.159924085717730e+01
	-6.872344699738992e-23
	0.000000000000000e+00
	-4.825587703456889e+00
45		2.250000000000000e+01
	2.250000000000000e+01
	1.000000000000000e+01
	-1.160964121586721e+01
	7.182460624372168e-23
	0.000000000000000e+00
	1.160964121070068e+01
	4.825587703457389e+00
	-1.160964121070068e+01
	-7.182460624368621e-23
	0.000000000000000e+00
	-4.825587703457389e+00
46		2.300000000000000e+01
	2.300000000000000e+01
	1.000000000000000e+01
	-1.161996112276915e+01
	7.492575171132905e-23
	0.000000000000000e+00
	1.161996111794408e+01
	4.825587703457889e+00
	-1.161996111794408e+01
	-7.492575171129437e-23
	0.000000000000000e+00
	-4.825587703457889e+00
47		2.350000000000000e+01
	2.350000000000000e+01
	1.000000000000000e+01
	-1.163020341827792e+01
	7.802688385427951e-23
	0.000000000000000e+00
	1.163020341367557e+01
	4.825587703458389e+00
	-1.163020341367557e+01
	-7.802688385424693e-23
	0.000000000000000e+00
	-4.825587703458389e+00
48		2.400000000000000e+01
	2.400000000000000e+01
	1.000000000000000e+01
	-1.164037078425167e+01
	8.112800310222851e-23
	0.000000000000000e+00
	1.164037077999600e+01
	4.825587703458890e+00
	-1.164037077999600e+01
	-8.112800310219727e-23
	0.000000000000000e+00
	-4.825587703458890e+00
49		2.450000000000000e+01
	2.450000000000000e+01
	1.000000000000000e+01
	-1.165046576137388e+01
	8.422910986223031e-23
	0.000000000000000e+00
	1.165046575744145e+01
	4.825587703459390e+00
	-1.165046575744145e+01
	-8.422910986219286e-23
	0.000000000000000e+00
	-4.825587703459390e+00
50		2.500000000000000e+01
	2.500000000000000e+01
	1.000000000000000e+01
	-1.166049075886485e+01
	8.733020452037813e-23
	0.000000000000000e+00
	1.166049075521313e+01
	4.825587703459890e+00
	-1.166049075521313e+01
	-8.733020452034352e-23
	0.000000000000000e+00
	-4.825587703459890e+00
