Title: C:\Users\georg\AppData\Local\LTspice\examples\Educational\IGBT.net
Date: Thu Jul  9 00:57:19 2026
Plotname: DC transfer characteristic
Flags: real double forward linear stepped
No. Variables: 12
No. Points:          255
Offset:    0.0000000000000000e+00
Command: Linear Technology Corporation LTspice
Variables:
	0	V1	voltage
	1	V(n001)	voltage
	2	V(n002)	voltage
	3	I(V1)	device_current
	4	I(V2)	device_current
	5	I(cdg:Z1)	device_current
	6	Ic(Z1)	device_current
	7	Id(m1:Z1)	device_current
	8	Ie(Z1)	device_current
	9	Ig(Z1)	device_current
	10	Ig(m1:Z1)	device_current
	11	Is(m1:Z1)	device_current
Values:
0		0.000000000000000e+00
	0.000000000000000e+00
	0.000000000000000e+00
	0.000000000000000e+00
	0.000000000000000e+00
	0.000000000000000e+00
	0.000000000000000e+00
	-2.647553115614492e-10
	-0.000000000000000e+00
	0.000000000000000e+00
	0.000000000000000e+00
	2.647553115614492e-10
1		5.000000000000000e-01
	5.000000000000000e-01
	0.000000000000000e+00
	-2.735171483747569e-08
	2.105494701467305e-24
	0.000000000000000e+00
	2.735128953459228e-08
	3.395810173105599e-13
	-2.735128953459228e-08
	-2.105402307325472e-24
	0.000000000000000e+00
	-3.395810173105599e-13
2		1.000000000000000e+00
	1.000000000000000e+00
	0.000000000000000e+00
	-4.325217084488720e-08
	5.132795097064677e-24
	0.000000000000000e+00
	4.324937685340091e-08
	8.278700359318376e-13
	-4.324937685340091e-08
	-5.132794222777394e-24
	0.000000000000000e+00
	-8.278700359318376e-13
3		1.500000000000000e+00
	1.500000000000000e+00
	0.000000000000000e+00
	-5.513350276320459e-08
	8.194493022327690e-24
	0.000000000000000e+00
	5.512900315375013e-08
	-2.634336880533533e-10
	-5.512900315375012e-08
	-8.194065750194471e-24
	0.000000000000000e+00
	2.634336880533533e-10
4		2.000000000000000e+00
	2.000000000000000e+00
	0.000000000000000e+00
	-6.515939054985106e-08
	1.126823651063793e-23
	0.000000000000000e+00
	6.515794592463765e-08
	-2.629378654297310e-10
	-6.515794592463764e-08
	-1.126816601665246e-23
	0.000000000000000e+00
	2.629378654297310e-10
5		2.500000000000000e+00
	2.500000000000000e+00
	0.000000000000000e+00
	-7.405142010696803e-08
	1.434820565519833e-23
	0.000000000000000e+00
	7.405130532640965e-08
	2.314223081061269e-12
	-7.405130532640964e-08
	-1.434818310257987e-23
	0.000000000000000e+00
	-2.314223081061269e-12
6		3.000000000000000e+00
	3.000000000000000e+00
	0.000000000000000e+00
	-8.216005986660872e-08
	1.743198650639234e-23
	0.000000000000000e+00
	8.216004576642169e-08
	2.811609260371475e-12
	-8.216004576642168e-08
	-1.743197741430315e-23
	0.000000000000000e+00
	-2.811609260371475e-12
7		3.500000000000000e+00
	3.500000000000000e+00
	0.000000000000000e+00
	-8.968671627584880e-08
	2.051834415695295e-23
	0.000000000000000e+00
	8.968643183479211e-08
	-2.614459018591500e-10
	-8.968643183479208e-08
	-2.051834015425480e-23
	0.000000000000000e+00
	2.614459018591500e-10
8		4.000000000000000e+00
	4.000000000000000e+00
	0.000000000000000e+00
	-9.675900169980777e-08
	2.360656254293794e-23
	0.000000000000000e+00
	9.675885195331536e-08
	-2.609478017871889e-10
	-9.675885195331533e-08
	-2.360656060041376e-23
	0.000000000000000e+00
	2.609478017871889e-10
9		4.500000000000000e+00
	4.500000000000000e+00
	0.000000000000000e+00
	-1.034649561582046e-07
	2.669618739836610e-23
	0.000000000000000e+00
	1.034645967804952e-07
	4.305836525197898e-12
	-1.034645967804952e-07
	-2.669618645622697e-23
	0.000000000000000e+00
	-4.305836525197898e-12
10		5.000000000000000e+00
	5.000000000000000e+00
	0.000000000000000e+00
	-1.098669688559527e-07
	2.978691290596959e-23
	0.000000000000000e+00
	1.098662421795647e-07
	4.804340822737599e-12
	-1.098662421795647e-07
	-2.978691310097312e-23
	0.000000000000000e+00
	-4.804340822737599e-12
11		5.500000000000000e+00
	5.500000000000000e+00
	0.000000000000000e+00
	-1.160124329935272e-07
	3.287852384662649e-23
	0.000000000000000e+00
	1.160124727106266e-07
	-2.594523239366763e-10
	-1.160124727106266e-07
	-3.287852327359168e-23
	0.000000000000000e+00
	2.594523239366763e-10
12		6.000000000000000e+00
	6.000000000000000e+00
	0.000000000000000e+00
	-1.219368104266023e-07
	3.597086335022148e-23
	0.000000000000000e+00
	1.219370833221595e-07
	-2.589535594798432e-10
	-1.219370833221594e-07
	-3.597086290595659e-23
	0.000000000000000e+00
	2.589535594798432e-10
13		6.500000000000000e+00
	6.500000000000000e+00
	0.000000000000000e+00
	-1.276691841134420e-07
	3.906381221911445e-23
	0.000000000000000e+00
	1.276692670577160e-07
	6.300614781727048e-12
	-1.276692670577160e-07
	-3.906381164670770e-23
	0.000000000000000e+00
	-6.300614781727048e-12
14		7.000000000000000e+00
	7.000000000000000e+00
	0.000000000000000e+00
	-1.332343320115097e-07
	4.215727543994413e-23
	0.000000000000000e+00
	1.332327692812200e-07
	6.799560867075885e-12
	-1.332327692812199e-07
	-4.215727737587050e-23
	0.000000000000000e+00
	-6.799560867075885e-12
15		7.500000000000000e+00
	7.500000000000000e+00
	0.000000000000000e+00
	-1.386461372376838e-07
	4.525118755501996e-23
	0.000000000000000e+00
	1.386476734542452e-07
	-2.574567332175966e-10
	-1.386476734542451e-07
	-4.525118573188604e-23
	0.000000000000000e+00
	2.574567332175966e-10
16		8.000000000000000e+00
	8.000000000000000e+00
	0.000000000000000e+00
	-1.439278101145171e-07
	4.834548076555573e-23
	0.000000000000000e+00
	1.439277992544162e-07
	-2.569576533890539e-10
	-1.439277992544162e-07
	-4.834548066885053e-23
	0.000000000000000e+00
	2.569576533890539e-10
17		8.500000000000000e+00
	8.500000000000000e+00
	0.000000000000000e+00
	-1.490855510155576e-07
	5.144011643906680e-23
	0.000000000000000e+00
	1.490845883358997e-07
	8.296793170073265e-12
	-1.490845883358996e-07
	-5.144011765445425e-23
	0.000000000000000e+00
	-8.296793170073265e-12
18		9.000000000000000e+00
	9.000000000000000e+00
	0.000000000000000e+00
	-1.541339162969256e-07
	5.453505115572331e-23
	0.000000000000000e+00
	1.541332275322733e-07
	8.795976097862535e-12
	-1.541332275322733e-07
	-5.453505180674773e-23
	0.000000000000000e+00
	-8.795976097862535e-12
19		9.500000000000000e+00
	9.500000000000000e+00
	0.000000000000000e+00
	-1.590815710272839e-07
	5.763025343885521e-23
	0.000000000000000e+00
	1.590818190579165e-07
	-2.554601094299218e-10
	-1.590818190579164e-07
	-5.763025321546958e-23
	0.000000000000000e+00
	2.554601094299218e-10
20		1.000000000000000e+01
	1.000000000000000e+01
	0.000000000000000e+00
	-1.639365656558286e-07
	6.072569546383960e-23
	0.000000000000000e+00
	1.639367751341141e-07
	-2.549608446014210e-10
	-1.639367751341141e-07
	-6.072569515217439e-23
	0.000000000000000e+00
	2.549608446014210e-10
21		1.050000000000000e+01
	1.050000000000000e+01
	0.000000000000000e+00
	-1.687081558898713e-07
	6.382135272072191e-23
	0.000000000000000e+00
	1.687078928604187e-07
	1.029376663447624e-11
	-1.687078928604186e-07
	-6.382135313375269e-23
	0.000000000000000e+00
	-1.029376663447624e-11
22		1.100000000000000e+01
	1.100000000000000e+01
	0.000000000000000e+00
	-1.734022481159030e-07
	6.691720489800161e-23
	0.000000000000000e+00
	1.734016662850703e-07
	1.079309760463069e-11
	-1.734016662850702e-07
	-6.691720514871032e-23
	0.000000000000000e+00
	-1.079309760463069e-11
23		1.150000000000000e+01
	1.150000000000000e+01
	0.000000000000000e+00
	-1.780227254499748e-07
	7.001323603844568e-23
	0.000000000000000e+00
	1.780231067933907e-07
	-2.534628540719260e-10
	-1.780231067933906e-07
	-7.001323643504388e-23
	0.000000000000000e+00
	2.534628540719260e-10
24		1.200000000000000e+01
	1.200000000000000e+01
	0.000000000000000e+00
	-1.825776347885690e-07
	7.310942933037622e-23
	0.000000000000000e+00
	1.825784254643952e-07
	-2.529634682413212e-10
	-1.825784254643951e-07
	-7.310942858479347e-23
	0.000000000000000e+00
	2.529634682413212e-10
25		1.250000000000000e+01
	1.250000000000000e+01
	0.000000000000000e+00
	-1.870686343607953e-07
	7.620577287373288e-23
	0.000000000000000e+00
	1.870681469859447e-07
	1.229125377030230e-11
	-1.870681469859446e-07
	-7.620577337587428e-23
	0.000000000000000e+00
	-1.229125377030230e-11
26		1.300000000000000e+01
	1.300000000000000e+01
	0.000000000000000e+00
	-1.915011580422254e-07
	7.930225419160496e-23
	0.000000000000000e+00
	1.914996426906156e-07
	1.279068635791557e-11
	-1.914996426906155e-07
	-7.930225541907652e-23
	0.000000000000000e+00
	-1.279068635791557e-11
27		1.350000000000000e+01
	1.350000000000000e+01
	0.000000000000000e+00
	-1.958788597988779e-07
	8.239886286905595e-23
	0.000000000000000e+00
	1.958796761423762e-07
	-2.514651725393789e-10
	-1.958796761423761e-07
	-8.239886193683545e-23
	0.000000000000000e+00
	2.514651725393789e-10
28		1.400000000000000e+01
	1.400000000000000e+01
	0.000000000000000e+00
	-2.002046457505421e-07
	8.549558940100906e-23
	0.000000000000000e+00
	2.002041677825408e-07
	-2.509657002962261e-10
	-2.002041677825407e-07
	-8.549558984438286e-23
	0.000000000000000e+00
	2.509657002962261e-10
29		1.450000000000000e+01
	1.450000000000000e+01
	0.000000000000000e+00
	-2.044806493017821e-07
	8.859242716006006e-23
	0.000000000000000e+00
	2.044791969646833e-07
	1.428910135489309e-11
	-2.044791969646832e-07
	-8.859242840033716e-23
	0.000000000000000e+00
	-1.428910135489309e-11
30		1.500000000000000e+01
	1.500000000000000e+01
	0.000000000000000e+00
	-2.087127164429564e-07
	9.168936532893822e-23
	0.000000000000000e+00
	2.087145693462013e-07
	1.478860707799914e-11
	-2.087145693462012e-07
	-9.168936388359469e-23
	0.000000000000000e+00
	-1.478860707799914e-11
31		1.550000000000000e+01
	1.550000000000000e+01
	0.000000000000000e+00
	-2.129018188412561e-07
	9.478639951977329e-23
	0.000000000000000e+00
	2.129011006442831e-07
	-2.494671825620327e-10
	-2.129011006442830e-07
	-9.478639979638191e-23
	0.000000000000000e+00
	2.494671825620327e-10
32		1.600000000000000e+01
	1.600000000000000e+01
	0.000000000000000e+00
	-2.170481145924399e-07
	9.788352467523774e-23
	0.000000000000000e+00
	2.170500631584849e-07
	-2.489676465390339e-10
	-2.170500631584848e-07
	-9.788352313897463e-23
	0.000000000000000e+00
	2.489676465390339e-10
33		1.650000000000000e+01
	1.650000000000000e+01
	0.000000000000000e+00
	-2.211590022227440e-07
	1.009807313898086e-22
	0.000000000000000e+00
	2.211577727731058e-07
	1.628721486866542e-11
	-2.211577727731057e-07
	-1.009807321857256e-22
	0.000000000000000e+00
	-1.628721486866542e-11
34		1.700000000000000e+01
	1.700000000000000e+01
	0.000000000000000e+00
	-2.252318491713323e-07
	1.040780180036888e-22
	0.000000000000000e+00
	2.252297332075820e-07
	1.678677733000402e-11
	-2.252297332075819e-07
	-1.040780194460249e-22
	0.000000000000000e+00
	-1.678677733000402e-11
35		1.750000000000000e+01
	1.750000000000000e+01
	0.000000000000000e+00
	-2.292685081783884e-07
	1.071753796818378e-22
	0.000000000000000e+00
	2.292687468915725e-07
	-2.474689600086281e-10
	-2.292687468915724e-07
	-1.071753796274906e-22
	0.000000000000000e+00
	2.474689600086281e-10
36		1.800000000000000e+01
	1.800000000000000e+01
	0.000000000000000e+00
	-2.332714093000685e-07
	1.102728126059442e-22
	0.000000000000000e+00
	2.332715006041458e-07
	-2.469693740403320e-10
	-2.332715006041457e-07
	-1.102728126309263e-22
	0.000000000000000e+00
	2.469693740403320e-10
37		1.850000000000000e+01
	1.850000000000000e+01
	0.000000000000000e+00
	-2.372451728405119e-07
	1.133703100228610e-22
	0.000000000000000e+00
	2.372430848778285e-07
	1.828553414157959e-11
	-2.372430848778284e-07
	-1.133703116777935e-22
	0.000000000000000e+00
	-1.828553414157959e-11
38		1.900000000000000e+01
	1.900000000000000e+01
	0.000000000000000e+00
	-2.411848285532820e-07
	1.164678728387077e-22
	0.000000000000000e+00
	2.411854629606392e-07
	1.878514077484194e-11
	-2.411854629606391e-07
	-1.164678728040201e-22
	0.000000000000000e+00
	-1.878514077484194e-11
39		1.950000000000000e+01
	1.950000000000000e+01
	0.000000000000000e+00
	-2.450980307599997e-07
	1.195654944112300e-22
	0.000000000000000e+00
	2.450986422484547e-07
	-2.454705544651369e-10
	-2.450986422484546e-07
	-1.195654939971360e-22
	0.000000000000000e+00
	2.454705544651369e-10
40		2.000000000000000e+01
	2.000000000000000e+01
	0.000000000000000e+00
	-2.489831842922233e-07
	1.226631723823840e-22
	0.000000000000000e+00
	2.489846523330307e-07
	-2.449709290952848e-10
	-2.489846523330306e-07
	-1.226631712902190e-22
	0.000000000000000e+00
	2.449709290952848e-10
41		2.050000000000000e+01
	2.050000000000000e+01
	0.000000000000000e+00
	-2.528456786166035e-07
	1.257609023831737e-22
	0.000000000000000e+00
	2.528467172661631e-07
	2.028401643521916e-11
	-2.528467172661629e-07
	-1.257609018983588e-22
	0.000000000000000e+00
	-2.028401643521916e-11
42		2.100000000000000e+01
	2.100000000000000e+01
	0.000000000000000e+00
	-2.566839398809806e-07
	1.288586827223049e-22
	0.000000000000000e+00
	2.566825276294581e-07
	2.078365860484848e-11
	-2.566825276294580e-07
	-1.288586833500606e-22
	0.000000000000000e+00
	-2.078365860484848e-11
43		2.150000000000000e+01
	2.150000000000000e+01
	0.000000000000000e+00
	-2.604955753326920e-07
	1.319565141023523e-22
	0.000000000000000e+00
	2.604944996351259e-07
	-2.434720027121236e-10
	-2.604944996351258e-07
	-1.319565148658188e-22
	0.000000000000000e+00
	2.434720027121236e-10
44		2.200000000000000e+01
	2.200000000000000e+01
	0.000000000000000e+00
	-2.642787499951225e-07
	1.350543951704070e-22
	0.000000000000000e+00
	2.642812569163232e-07
	-2.429723448216407e-10
	-2.642812569163231e-07
	-1.350543937868126e-22
	0.000000000000000e+00
	2.429723448216407e-10
45		2.250000000000000e+01
	2.250000000000000e+01
	0.000000000000000e+00
	-2.680483408568021e-07
	1.381523157497986e-22
	0.000000000000000e+00
	2.680481369477016e-07
	2.228263155333566e-11
	-2.680481369477015e-07
	-1.381523156306811e-22
	0.000000000000000e+00
	-2.228263155333566e-11
46		2.300000000000000e+01
	2.300000000000000e+01
	0.000000000000000e+00
	-2.717910092542237e-07
	1.412502821095277e-22
	0.000000000000000e+00
	2.717895926695227e-07
	2.278230372136800e-11
	-2.717895926695225e-07
	-1.412502830724816e-22
	0.000000000000000e+00
	-2.278230372136800e-11
47		2.350000000000000e+01
	2.350000000000000e+01
	0.000000000000000e+00
	-2.755164256740211e-07
	1.443482875321661e-22
	0.000000000000000e+00
	2.755144331917488e-07
	-2.414733294338875e-10
	-2.755144331917487e-07
	-1.443482891908824e-22
	0.000000000000000e+00
	2.414733294338875e-10
48		2.400000000000000e+01
	2.400000000000000e+01
	0.000000000000000e+00
	-2.792189555122996e-07
	1.474463343341699e-22
	0.000000000000000e+00
	2.792226588863594e-07
	-2.409736450798711e-10
	-2.792226588863592e-07
	-1.474463321857841e-22
	0.000000000000000e+00
	2.409736450798711e-10
49		2.450000000000000e+01
	2.450000000000000e+01
	0.000000000000000e+00
	-2.829078322719106e-07
	1.505444149313354e-22
	0.000000000000000e+00
	2.829049796327757e-07
	2.428135755912908e-11
	-2.829049796327755e-07
	-1.505444168666003e-22
	0.000000000000000e+00
	-2.428135755912908e-11
50		2.500000000000000e+01
	2.500000000000000e+01
	0.000000000000000e+00
	-2.865729893386449e-07
	1.536425357608812e-22
	0.000000000000000e+00
	2.865769735392852e-07
	2.478105376262759e-11
	-2.865769735392851e-07
	-1.536425333282911e-22
	0.000000000000000e+00
	-2.478105376262759e-11
51		0.000000000000000e+00
	0.000000000000000e+00
	5.000000000000000e+00
	3.076758038110225e-31
	-3.100000000000000e-23
	0.000000000000000e+00
	-8.003900607255244e-23
	-2.647553115614492e-10
	4.903900607255244e-23
	3.100000000000000e-23
	0.000000000000000e+00
	2.647553115614492e-10
52		5.000000000000000e-01
	5.000000000000000e-01
	5.000000000000000e+00
	-5.655519693808952e-03
	-3.094343562365582e-23
	0.000000000000000e+00
	5.655484303169686e-03
	1.018121313512882e-03
	-5.655484303169686e-03
	3.094343617601372e-23
	0.000000000000000e+00
	-1.018121313512882e-03
53		1.000000000000000e+00
	1.000000000000000e+00
	5.000000000000000e+00
	-9.196296522338310e-02
	-2.862755991327949e-23
	0.000000000000000e+00
	9.198304247989741e-02
	1.699801262004196e-02
	-9.198304247989741e-02
	2.862761366619902e-23
	0.000000000000000e+00
	-1.699801262004196e-02
54		1.500000000000000e+00
	1.500000000000000e+00
	5.000000000000000e+00
	-9.285369186120551e-02
	-2.552861334679229e-23
	0.000000000000000e+00
	9.420979510827365e-02
	1.699801235578592e-02
	-9.420979510827365e-02
	2.553211107978821e-23
	0.000000000000000e+00
	-1.699801235578592e-02
55		2.000000000000000e+00
	2.000000000000000e+00
	5.000000000000000e+00
	-9.361617863428773e-02
	-2.242950942752385e-23
	0.000000000000000e+00
	9.362073427245818e-02
	1.699801235628634e-02
	-9.362073427245818e-02
	2.242952106127129e-23
	0.000000000000000e+00
	-1.699801235628634e-02
56		2.500000000000000e+00
	2.500000000000000e+00
	5.000000000000000e+00
	-9.429731207483449e-02
	-1.933030652418950e-23
	0.000000000000000e+00
	9.429610734903691e-02
	1.699801235678622e-02
	-9.429610734903691e-02
	1.933030375520835e-23
	0.000000000000000e+00
	-1.699801235678622e-02
57		3.000000000000000e+00
	3.000000000000000e+00
	5.000000000000000e+00
	-9.492096642561165e-02
	-1.623103321493325e-23
	0.000000000000000e+00
	9.492091047593736e-02
	1.699801262204141e-02
	-9.492091047593736e-02
	1.623103316720010e-23
	0.000000000000000e+00
	-1.699801262204141e-02
58		3.500000000000000e+00
	3.500000000000000e+00
	5.000000000000000e+00
	-9.550126026866224e-02
	-1.313170668003190e-23
	0.000000000000000e+00
	9.550123113725743e-02
	1.699801235778599e-02
	-9.550123113725743e-02
	1.313170666056981e-23
	0.000000000000000e+00
	-1.699801235778599e-02
59		4.000000000000000e+00
	4.000000000000000e+00
	5.000000000000000e+00
	-9.604736296990346e-02
	-1.003233808303630e-23
	0.000000000000000e+00
	9.604734415499004e-02
	1.699801235828589e-02
	-9.604734415499004e-02
	1.003233806995487e-23
	0.000000000000000e+00
	-1.699801235828589e-02
60		4.500000000000000e+00
	4.500000000000000e+00
	5.000000000000000e+00
	-9.656562763883869e-02
	-6.932935162694682e-24
	0.000000000000000e+00
	9.656561493526461e-02
	1.699801235878579e-02
	-9.656561493526461e-02
	6.932935153930156e-24
	0.000000000000000e+00
	-1.699801235878579e-02
61		5.000000000000000e+00
	5.000000000000000e+00
	5.000000000000000e+00
	-9.706067046396605e-02
	-3.833503544887869e-24
	0.000000000000000e+00
	9.706066146472597e-02
	1.699801262404101e-02
	-9.706066146472597e-02
	3.833503538722728e-24
	0.000000000000000e+00
	-1.699801262404101e-02
62		5.500000000000000e+00
	5.500000000000000e+00
	5.000000000000000e+00
	-9.753597019477489e-02
	-7.340474713620730e-25
	0.000000000000000e+00
	9.753596357604268e-02
	1.699801235978561e-02
	-9.753596357604268e-02
	7.340474668602198e-25
	0.000000000000000e+00
	-1.699801235978561e-02
63		6.000000000000000e+00
	6.000000000000000e+00
	5.000000000000000e+00
	-9.799422534357127e-02
	2.365429765853546e-24
	0.000000000000000e+00
	9.799422032706648e-02
	1.699801236028553e-02
	-9.799422032706648e-02
	-2.365429769238818e-24
	0.000000000000000e+00
	-1.699801236028553e-02
64		6.500000000000000e+00
	6.500000000000000e+00
	5.000000000000000e+00
	-9.843757895488991e-02
	5.464925551078582e-24
	0.000000000000000e+00
	9.843757505644994e-02
	1.699801236078545e-02
	-9.843757505644994e-02
	-5.464925553691016e-24
	0.000000000000000e+00
	-1.699801236078545e-02
65		7.000000000000000e+00
	7.000000000000000e+00
	5.000000000000000e+00
	-9.886776642655448e-02
	8.564437765159761e-24
	0.000000000000000e+00
	9.886776332918468e-02
	1.699801262604068e-02
	-9.886776332918468e-02
	-8.564437767231248e-24
	0.000000000000000e+00
	-1.699801262604068e-02
66		7.500000000000000e+00
	7.500000000000000e+00
	5.000000000000000e+00
	-9.928621631761558e-02
	1.166396466280595e-23
	0.000000000000000e+00
	9.928621381609654e-02
	1.699801236178529e-02
	-9.928621381609654e-02
	-1.166396466446713e-23
	0.000000000000000e+00
	-1.699801236178529e-02
67		8.000000000000000e+00
	8.000000000000000e+00
	5.000000000000000e+00
	-9.969412124003085e-02
	1.476350478626396e-23
	0.000000000000000e+00
	9.969411918604358e-02
	1.699801236228522e-02
	-9.969411918604358e-02
	-1.476350478762584e-23
	0.000000000000000e+00
	-1.699801236228522e-02
68		8.500000000000000e+00
	8.500000000000000e+00
	5.000000000000000e+00
	-1.000924889538268e-01
	1.786305690318553e-23
	0.000000000000000e+00
