Title: rca3040 ckt - rca 3040 wideband amplifier
Date: Sun Jul 05 08:30:38 2026
Plotname: AC Analysis
Flags: complex
No. Variables: 3
No. Points: 101               
Variables:
	0	FREQUENCY	frequency
	1	V(16)	voltage
	2	V(17)	voltage
Values:
0	1.00000000e+00, 0.00000000e+00
	1.11615019e+02, -9.99892306e-06
	-1.11616762e+02, 9.99314400e-06

1	1.25892541e+00, 0.00000000e+00
	1.11615019e+02, -1.25878983e-05
	-1.11616762e+02, 1.25806229e-05

2	1.58489319e+00, 0.00000000e+00
	1.11615019e+02, -1.58472251e-05
	-1.11616762e+02, 1.58380659e-05

3	1.99526231e+00, 0.00000000e+00
	1.11615019e+02, -1.99504744e-05
	-1.11616762e+02, 1.99389436e-05

4	2.51188643e+00, 0.00000000e+00
	1.11615019e+02, -2.51161592e-05
	-1.11616762e+02, 2.51016428e-05

5	3.16227766e+00, 0.00000000e+00
	1.11615019e+02, -3.16193710e-05
	-1.11616762e+02, 3.16010960e-05

6	3.98107171e+00, 0.00000000e+00
	1.11615019e+02, -3.98064297e-05
	-1.11616762e+02, 3.97834228e-05

7	5.01187234e+00, 0.00000000e+00
	1.11615019e+02, -5.01133259e-05
	-1.11616762e+02, 5.00843620e-05

8	6.30957344e+00, 0.00000000e+00
	1.11615019e+02, -6.30889394e-05
	-1.11616762e+02, 6.30524760e-05

9	7.94328235e+00, 0.00000000e+00
	1.11615019e+02, -7.94242690e-05
	-1.11616762e+02, 7.93783643e-05

10	1.00000000e+01, 0.00000000e+00
	1.11615019e+02, -9.99892306e-05
	-1.11616762e+02, 9.99314400e-05

11	1.25892541e+01, 0.00000000e+00
	1.11615019e+02, -1.25878983e-04
	-1.11616762e+02, 1.25806229e-04

12	1.58489319e+01, 0.00000000e+00
	1.11615019e+02, -1.58472251e-04
	-1.11616762e+02, 1.58380659e-04

13	1.99526231e+01, 0.00000000e+00
	1.11615019e+02, -1.99504744e-04
	-1.11616762e+02, 1.99389436e-04

14	2.51188643e+01, 0.00000000e+00
	1.11615019e+02, -2.51161592e-04
	-1.11616762e+02, 2.51016428e-04

15	3.16227766e+01, 0.00000000e+00
	1.11615019e+02, -3.16193710e-04
	-1.11616762e+02, 3.16010960e-04

16	3.98107171e+01, 0.00000000e+00
	1.11615019e+02, -3.98064297e-04
	-1.11616762e+02, 3.97834228e-04

17	5.01187234e+01, 0.00000000e+00
	1.11615019e+02, -5.01133259e-04
	-1.11616762e+02, 5.00843620e-04

18	6.30957344e+01, 0.00000000e+00
	1.11615019e+02, -6.30889394e-04
	-1.11616761e+02, 6.30524760e-04

19	7.94328235e+01, 0.00000000e+00
	1.11615019e+02, -7.94242690e-04
	-1.11616761e+02, 7.93783643e-04

20	1.00000000e+02, 0.00000000e+00
	1.11615019e+02, -9.99892306e-04
	-1.11616761e+02, 9.99314400e-04

21	1.25892541e+02, 0.00000000e+00
	1.11615019e+02, -1.25878983e-03
	-1.11616761e+02, 1.25806229e-03

22	1.58489319e+02, 0.00000000e+00
	1.11615019e+02, -1.58472251e-03
	-1.11616761e+02, 1.58380659e-03

23	1.99526231e+02, 0.00000000e+00
	1.11615019e+02, -1.99504744e-03
	-1.11616761e+02, 1.99389436e-03

24	2.51188643e+02, 0.00000000e+00
	1.11615019e+02, -2.51161592e-03
	-1.11616761e+02, 2.51016428e-03

25	3.16227766e+02, 0.00000000e+00
	1.11615019e+02, -3.16193710e-03
	-1.11616761e+02, 3.16010960e-03

26	3.98107171e+02, 0.00000000e+00
	1.11615019e+02, -3.98064297e-03
	-1.11616761e+02, 3.97834228e-03

27	5.01187234e+02, 0.00000000e+00
	1.11615019e+02, -5.01133259e-03
	-1.11616761e+02, 5.00843620e-03

28	6.30957344e+02, 0.00000000e+00
	1.11615019e+02, -6.30889394e-03
	-1.11616761e+02, 6.30524760e-03

29	7.94328235e+02, 0.00000000e+00
	1.11615019e+02, -7.94242689e-03
	-1.11616761e+02, 7.93783642e-03

30	1.00000000e+03, 0.00000000e+00
	1.11615019e+02, -9.99892304e-03
	-1.11616761e+02, 9.99314398e-03

31	1.25892541e+03, 0.00000000e+00
	1.11615019e+02, -1.25878983e-02
	-1.11616761e+02, 1.25806229e-02

32	1.58489319e+03, 0.00000000e+00
	1.11615018e+02, -1.58472250e-02
	-1.11616760e+02, 1.58380658e-02

33	1.99526231e+03, 0.00000000e+00
	1.11615017e+02, -1.99504742e-02
	-1.11616759e+02, 1.99389435e-02

34	2.51188643e+03, 0.00000000e+00
	1.11615016e+02, -2.51161588e-02
	-1.11616758e+02, 2.51016425e-02

35	3.16227766e+03, 0.00000000e+00
	1.11615014e+02, -3.16193704e-02
	-1.11616756e+02, 3.16010954e-02

36	3.98107171e+03, 0.00000000e+00
	1.11615011e+02, -3.98064284e-02
	-1.11616753e+02, 3.97834215e-02

37	5.01187234e+03, 0.00000000e+00
	1.11615006e+02, -5.01133233e-02
	-1.11616748e+02, 5.00843594e-02

38	6.30957344e+03, 0.00000000e+00
	1.11614998e+02, -6.30889343e-02
	-1.11616740e+02, 6.30524709e-02

39	7.94328235e+03, 0.00000000e+00
	1.11614986e+02, -7.94242588e-02
	-1.11616728e+02, 7.93783541e-02

40	1.00000000e+04, 0.00000000e+00
	1.11614966e+02, -9.99892101e-02
	-1.11616708e+02, 9.99314195e-02

41	1.25892541e+04, 0.00000000e+00
	1.11614935e+02, -1.25878942e-01
	-1.11616677e+02, 1.25806188e-01

42	1.58489319e+04, 0.00000000e+00
	1.11614886e+02, -1.58472169e-01
	-1.11616628e+02, 1.58380577e-01

43	1.99526231e+04, 0.00000000e+00
	1.11614807e+02, -1.99504581e-01
	-1.11616549e+02, 1.99389274e-01

44	2.51188643e+04, 0.00000000e+00
	1.11614683e+02, -2.51161267e-01
	-1.11616425e+02, 2.51016104e-01

45	3.16227766e+04, 0.00000000e+00
	1.11614486e+02, -3.16193062e-01
	-1.11616229e+02, 3.16010313e-01

46	3.98107171e+04, 0.00000000e+00
	1.11614174e+02, -3.98063004e-01
	-1.11615917e+02, 3.97832936e-01

47	5.01187234e+04, 0.00000000e+00
	1.11613680e+02, -5.01130679e-01
	-1.11615423e+02, 5.00841041e-01

48	6.30957344e+04, 0.00000000e+00
	1.11612896e+02, -6.30884246e-01
	-1.11614640e+02, 6.30519616e-01

49	7.94328235e+04, 0.00000000e+00
	1.11611655e+02, -7.94232419e-01
	-1.11613399e+02, 7.93773379e-01

50	1.00000000e+05, 0.00000000e+00
	1.11609687e+02, -9.99871813e-01
	-1.11611432e+02, 9.99293920e-01

51	1.25892541e+05, 0.00000000e+00
	1.11606568e+02, -1.25874894e+00
	-1.11608315e+02, 1.25802143e+00

52	1.58489319e+05, 0.00000000e+00
	1.11601625e+02, -1.58464092e+00
	-1.11603375e+02, 1.58372506e+00

53	1.99526231e+05, 0.00000000e+00
	1.11593790e+02, -1.99488465e+00
	-1.11595546e+02, 1.99373168e+00

54	2.51188643e+05, 0.00000000e+00
	1.11581375e+02, -2.51129112e+00
	-1.11583138e+02, 2.50983969e+00

55	3.16227766e+05, 0.00000000e+00
	1.11561698e+02, -3.16128906e+00
	-1.11563474e+02, 3.15946197e+00

56	3.98107171e+05, 0.00000000e+00
	1.11530516e+02, -3.97934999e+00
	-1.11532312e+02, 3.97705012e+00

57	5.01187234e+05, 0.00000000e+00
	1.11481103e+02, -5.00875285e+00
	-1.11482931e+02, 5.00585808e+00

58	6.30957344e+05, 0.00000000e+00
	1.11402810e+02, -6.30374698e+00
	-1.11404687e+02, 6.30010387e+00

59	7.94328235e+05, 0.00000000e+00
	1.11278772e+02, -7.93215828e+00
	-1.11280729e+02, 7.92757425e+00

60	1.00000000e+06, 0.00000000e+00
	1.11082311e+02, -9.97843738e+00
	-1.11084393e+02, 9.97267116e+00

61	1.25892541e+06, 0.00000000e+00
	1.10771254e+02, -1.25470332e+01
	-1.10773534e+02, 1.25397834e+01

62	1.58489319e+06, 0.00000000e+00
	1.10279050e+02, -1.57657177e+01
	-1.10281645e+02, 1.57566096e+01

63	1.99526231e+06, 0.00000000e+00
	1.09500942e+02, -1.97879389e+01
	-1.09504033e+02, 1.97765098e+01

64	2.51188643e+06, 0.00000000e+00
	1.08272711e+02, -2.47921550e+01
	-1.08276583e+02, 2.47778410e+01

65	3.16227766e+06, 0.00000000e+00
	1.06338653e+02, -3.09738496e+01
	-1.06343756e+02, 3.09559767e+01

66	3.98107171e+06, 0.00000000e+00
	1.03305038e+02, -3.85215205e+01
	-1.03312068e+02, 3.84993108e+01

67	5.01187234e+06, 0.00000000e+00
	9.85770371e+01, -4.75596441e+01
	-9.85870640e+01, 4.75322550e+01

68	6.30957344e+06, 0.00000000e+00
	9.12859405e+01, -5.80270334e+01
	-9.13005770e+01, 5.79936634e+01

69	7.94328235e+06, 0.00000000e+00
	8.02425215e+01, -6.94374909e+01
	-8.02641293e+01, 6.93976099e+01

70	1.00000000e+07, 0.00000000e+00
	6.40324140e+01, -8.04551628e+01
	-6.40642909e+01, 8.04089488e+01

71	1.25892541e+07, 0.00000000e+00
	4.15501064e+01, -8.82887490e+01
	-4.15965131e+01, 8.82378158e+01

72	1.58489319e+07, 0.00000000e+00
	1.35035747e+01, -8.83396105e+01
	-1.35693203e+01, 8.82880275e+01

73	1.99526231e+07, 0.00000000e+00
	-1.50395640e+01, -7.57265728e+01
	1.49503544e+01, 7.56819262e+01

74	2.51188643e+07, 0.00000000e+00
	-3.41937587e+01, -5.06943870e+01
	3.40799187e+01, 5.06682183e+01

75	3.16227766e+07, 0.00000000e+00
	-3.68423845e+01, -2.30763211e+01
	3.67086457e+01, 2.30830345e+01

76	3.98107171e+07, 0.00000000e+00
	-2.74449685e+01, -4.39453667e+00
	2.73044564e+01, 4.44827382e+00

77	5.01187234e+07, 0.00000000e+00
	-1.60212953e+01, 3.24154221e+00
	1.58964174e+01, -3.13165850e+00

78	6.30957344e+07, 0.00000000e+00
	-7.93079063e+00, 4.43190057e+00
	7.85210467e+00, -4.26749532e+00

79	7.94328235e+07, 0.00000000e+00
	-3.46703963e+00, 3.42389779e+00
	3.46980597e+00, -3.22457794e+00

80	1.00000000e+08, 0.00000000e+00
	-1.31962560e+00, 2.17820098e+00
	1.43442113e+00, -1.99286435e+00

81	1.25892541e+08, 0.00000000e+00
	-3.73694649e-01, 1.22298579e+00
	5.92729502e-01, -1.14332861e+00

82	1.58489319e+08, 0.00000000e+00
	-3.82907353e-02, 5.77978929e-01
	2.28900961e-01, -6.83046432e-01

83	1.99526231e+08, 0.00000000e+00
	-1.17097683e-03, 2.50900103e-01
	2.21942990e-02, -3.88832087e-01

84	2.51188643e+08, 0.00000000e+00
	7.65105853e-03, 1.24363761e-01
	-3.52173004e-02, -1.83448592e-01

85	3.16227766e+08, 0.00000000e+00
	1.27123563e-02, 5.62206824e-02
	-3.30651728e-02, -8.15560141e-02

86	3.98107171e+08, 0.00000000e+00
	8.57508425e-03, 2.14485281e-02
	-2.21302630e-02, -3.42869348e-02

87	5.01187234e+08, 0.00000000e+00
	3.22843529e-03, 6.64772424e-03
	-1.22357161e-02, -1.34869233e-02

88	6.30957344e+08, 0.00000000e+00
	-2.87000116e-05, 1.55049293e-03
	-5.82846962e-03, -5.36822553e-03

89	7.94328235e+08, 0.00000000e+00
	-1.21454239e-03, 2.13910274e-04
	-2.58634839e-03, -2.52800479e-03

90	1.00000000e+09, 0.00000000e+00
	-1.30829108e-03, -1.77978322e-05
	-1.23739511e-03, -1.50707641e-03

91	1.25892541e+09, 0.00000000e+00
	-1.04947462e-03, -2.04375609e-05
	-7.56345450e-04, -1.01649906e-03

92	1.58489319e+09, 0.00000000e+00
	-7.63100382e-04, 4.92727569e-06
	-5.88485530e-04, -6.71182649e-04

93	1.99526231e+09, 0.00000000e+00
	-5.33894716e-04, 3.20189930e-05
	-4.91200212e-04, -3.90858277e-04

94	2.51188643e+09, 0.00000000e+00
	-3.60416399e-04, 5.54239058e-05
	-3.85463963e-04, -1.79978896e-04

95	3.16227766e+09, 0.00000000e+00
	-2.29485151e-04, 6.69619929e-05
	-2.69867161e-04, -4.83612498e-05

96	3.98107171e+09, 0.00000000e+00
	-1.34899191e-04, 6.35871662e-05
	-1.66969009e-04, 1.39083122e-05

97	5.01187234e+09, 0.00000000e+00
	-7.26880120e-05, 5.02794156e-05
	-9.22409019e-05, 3.14174527e-05

98	6.30957344e+09, 0.00000000e+00
	-3.61384078e-05, 3.46009299e-05
	-4.63787361e-05, 2.83270737e-05

99	7.94328235e+09, 0.00000000e+00
	-1.68158797e-05, 2.15014485e-05
	-2.16837552e-05, 1.97479205e-05

100	1.00000000e+10, 0.00000000e+00
	-7.44228262e-06, 1.24299911e-05
	-9.61473032e-06, 1.20930083e-05

