Title: ** NMOSFET: Benchmarking Implementation of BSIM4.6.0 by Mohan V. Dunga 12/13/2006.
Date: Sun Jul 05 08:27:02 2026
Plotname: DC transfer characteristic
Flags: real
No. Variables: 4
No. Points: 61                
Variables:
	0	sweep	voltage
	1	V(2)	voltage
	2	V(1)	voltage
	3	I(VDS)	current
Values:
0	0.00000000e+00
	0.00000000e+00
	1.20000000e+00
	7.31107717e-07

1	2.00000000e-02
	2.00000000e-02
	1.20000000e+00
	-2.21052788e-04

2	4.00000000e-02
	4.00000000e-02
	1.20000000e+00
	-4.33224761e-04

3	6.00000000e-02
	6.00000000e-02
	1.20000000e+00
	-6.35961895e-04

4	8.00000000e-02
	8.00000000e-02
	1.20000000e+00
	-8.29440523e-04

5	1.00000000e-01
	1.00000000e-01
	1.20000000e+00
	-1.01383365e-03

6	1.20000000e-01
	1.20000000e-01
	1.20000000e+00
	-1.18931120e-03

7	1.40000000e-01
	1.40000000e-01
	1.20000000e+00
	-1.35604041e-03

8	1.60000000e-01
	1.60000000e-01
	1.20000000e+00
	-1.51418618e-03

9	1.80000000e-01
	1.80000000e-01
	1.20000000e+00
	-1.66391153e-03

10	2.00000000e-01
	2.00000000e-01
	1.20000000e+00
	-1.80537817e-03

11	2.20000000e-01
	2.20000000e-01
	1.20000000e+00
	-1.93874713e-03

12	2.40000000e-01
	2.40000000e-01
	1.20000000e+00
	-2.06417962e-03

13	2.60000000e-01
	2.60000000e-01
	1.20000000e+00
	-2.18183806e-03

14	2.80000000e-01
	2.80000000e-01
	1.20000000e+00
	-2.29188750e-03

15	3.00000000e-01
	3.00000000e-01
	1.20000000e+00
	-2.39449739e-03

16	3.20000000e-01
	3.20000000e-01
	1.20000000e+00
	-2.48984394e-03

17	3.40000000e-01
	3.40000000e-01
	1.20000000e+00
	-2.57811335e-03

18	3.60000000e-01
	3.60000000e-01
	1.20000000e+00
	-2.65950590e-03

19	3.80000000e-01
	3.80000000e-01
	1.20000000e+00
	-2.73424151e-03

20	4.00000000e-01
	4.00000000e-01
	1.20000000e+00
	-2.80256661e-03

21	4.20000000e-01
	4.20000000e-01
	1.20000000e+00
	-2.86476249e-03

22	4.40000000e-01
	4.40000000e-01
	1.20000000e+00
	-2.92115434e-03

23	4.60000000e-01
	4.60000000e-01
	1.20000000e+00
	-2.97211911e-03

24	4.80000000e-01
	4.80000000e-01
	1.20000000e+00
	-3.01808869e-03

25	5.00000000e-01
	5.00000000e-01
	1.20000000e+00
	-3.05954431e-03

26	5.20000000e-01
	5.20000000e-01
	1.20000000e+00
	-3.09699881e-03

27	5.40000000e-01
	5.40000000e-01
	1.20000000e+00
	-3.13096879e-03

28	5.60000000e-01
	5.60000000e-01
	1.20000000e+00
	-3.16194406e-03

29	5.80000000e-01
	5.80000000e-01
	1.20000000e+00
	-3.19036399e-03

30	6.00000000e-01
	6.00000000e-01
	1.20000000e+00
	-3.21660638e-03

31	6.20000000e-01
	6.20000000e-01
	1.20000000e+00
	-3.24098761e-03

32	6.40000000e-01
	6.40000000e-01
	1.20000000e+00
	-3.26376960e-03

33	6.60000000e-01
	6.60000000e-01
	1.20000000e+00
	-3.28516902e-03

34	6.80000000e-01
	6.80000000e-01
	1.20000000e+00
	-3.30536602e-03

35	7.00000000e-01
	7.00000000e-01
	1.20000000e+00
	-3.32451144e-03

36	7.20000000e-01
	7.20000000e-01
	1.20000000e+00
	-3.34273258e-03

37	7.40000000e-01
	7.40000000e-01
	1.20000000e+00
	-3.36013762e-03

38	7.60000000e-01
	7.60000000e-01
	1.20000000e+00
	-3.37681906e-03

39	7.80000000e-01
	7.80000000e-01
	1.20000000e+00
	-3.39285639e-03

40	8.00000000e-01
	8.00000000e-01
	1.20000000e+00
	-3.40831828e-03

41	8.20000000e-01
	8.20000000e-01
	1.20000000e+00
	-3.42326424e-03

42	8.40000000e-01
	8.40000000e-01
	1.20000000e+00
	-3.43774609e-03

43	8.60000000e-01
	8.60000000e-01
	1.20000000e+00
	-3.45180909e-03

44	8.80000000e-01
	8.80000000e-01
	1.20000000e+00
	-3.46549289e-03

45	9.00000000e-01
	9.00000000e-01
	1.20000000e+00
	-3.47883233e-03

46	9.20000000e-01
	9.20000000e-01
	1.20000000e+00
	-3.49185816e-03

47	9.40000000e-01
	9.40000000e-01
	1.20000000e+00
	-3.50459752e-03

48	9.60000000e-01
	9.60000000e-01
	1.20000000e+00
	-3.51707450e-03

49	9.80000000e-01
	9.80000000e-01
	1.20000000e+00
	-3.52931049e-03

50	1.00000000e+00
	1.00000000e+00
	1.20000000e+00
	-3.54132457e-03

51	1.02000000e+00
	1.02000000e+00
	1.20000000e+00
	-3.55313375e-03

52	1.04000000e+00
	1.04000000e+00
	1.20000000e+00
	-3.56475330e-03

53	1.06000000e+00
	1.06000000e+00
	1.20000000e+00
	-3.57619691e-03

54	1.08000000e+00
	1.08000000e+00
	1.20000000e+00
	-3.58747689e-03

55	1.10000000e+00
	1.10000000e+00
	1.20000000e+00
	-3.59860436e-03

56	1.12000000e+00
	1.12000000e+00
	1.20000000e+00
	-3.60958939e-03

57	1.14000000e+00
	1.14000000e+00
	1.20000000e+00
	-3.62044108e-03

58	1.16000000e+00
	1.16000000e+00
	1.20000000e+00
	-3.63116775e-03

59	1.18000000e+00
	1.18000000e+00
	1.20000000e+00
	-3.64177695e-03

60	1.20000000e+00
	1.20000000e+00
	1.20000000e+00
	-3.65227562e-03

