Title: bjt ft test
Date: Thu Jul  2 17:16:04  2026
Command: ngspice-46, Build Mar 29 2026   14:56:48
Plotname: AC Analysis
Flags: complex
No. Variables: 8
No. Points: 57
Variables:
	0	frequency	frequency grid=3
	1	v(1)	voltage
	2	v(2)	voltage
	3	v(b)	voltage
	4	v(c)	voltage
	5	i(l)	current
	6	i(vce)	current
	7	i(vgain)	current
Values:
 0	1.000000000000000e+04,0.000000000000000e+00
	0.000000000000000e+00,0.000000000000000e+00
	1.989756829189239e-12,1.438613423794995e-09
	4.794621667982415e+03,-6.610708085789652e+00
	0.000000000000000e+00,0.000000000000000e+00
	1.052126869419947e-13,7.630877387149092e-11
	-9.039074727100031e+01,1.250201087402970e-01
	9.039074727100031e+01,-1.250201087402970e-01

 1	1.264058931239162e+04,0.000000000000000e+00
	0.000000000000000e+00,0.000000000000000e+00
	1.989754607353894e-12,1.138089172544686e-09
	4.794616216994240e+03,-8.356315267222364e+00
	0.000000000000000e+00,0.000000000000000e+00
	1.052125694559264e-13,6.036798224392428e-11
	-9.039064418320018e+01,1.580326085724323e-01
	9.039064418320018e+01,-1.580326085724323e-01

 2	1.597844981645493e+04,0.000000000000000e+00
	0.000000000000000e+00,0.000000000000000e+00
	1.989751017282477e-12,9.003433862847560e-10
	4.794607507175585e+03,-1.056285588784799e+01
	0.000000000000000e+00,0.000000000000000e+00
	1.052123796221064e-13,4.775716629072887e-11
	-9.039047946516875e+01,1.997621698657427e-01
	9.039047946516875e+01,-1.997621698657427e-01

 3	2.019770219784660e+04,0.000000000000000e+00
	0.000000000000000e+00,0.000000000000000e+00
	1.989745255948910e-12,7.122617011585442e-10
	4.794593590305605e+03,-1.335203366378764e+01
	0.000000000000000e+00,0.000000000000000e+00
	1.052120749785645e-13,3.778069715748217e-11
	-9.039021627261334e+01,2.525104237952297e-01
	9.039021627261334e+01,-2.525104237952297e-01

 4	2.553108585369686e+04,0.000000000000000e+00
	0.000000000000000e+00,0.000000000000000e+00
	1.989736034659251e-12,5.634692891127988e-10
	4.794571353468238e+03,-1.687767918480935e+01
	0.000000000000000e+00,0.000000000000000e+00
	1.052115873826935e-13,2.988825995431668e-11
	-9.038979573480164e+01,3.191865771819142e-01
	9.038979573480164e+01,-3.191865771819142e-01

 5	3.227279709759934e+04,0.000000000000000e+00
	0.000000000000000e+00,0.000000000000000e+00
	1.989721290865014e-12,4.457585690273015e-10
	4.794535822884992e+03,-2.133422302625160e+01
	0.000000000000000e+00,0.000000000000000e+00
	1.052108077727293e-13,2.364449767820331e-11
	-9.038912378880994e+01,4.034676539313454e-01
	9.038912378880994e+01,-4.034676539313454e-01

 6	4.079471740728975e+04,0.000000000000000e+00
	0.000000000000000e+00,0.000000000000000e+00
	1.989697726891260e-12,3.526364659719397e-10
	4.794479051608165e+03,-2.696739578300530e+01
	0.000000000000000e+00,0.000000000000000e+00
	1.052095617769863e-13,1.870499636008330e-11
	-9.038805014384246e+01,5.100008514821436e-01
	9.038805014384246e+01,-5.100008514821436e-01

 7	5.156692688606233e+04,0.000000000000000e+00
	0.000000000000000e+00,0.000000000000000e+00
	1.989660072642143e-12,2.789662448534329e-10
	4.794388342702816e+03,-3.408773238293329e+01
	0.000000000000000e+00,0.000000000000000e+00
	1.052075707278235e-13,1.479728674794372e-11
	-9.038633467846645e+01,6.446589311072547e-01
	9.038633467846645e+01,-6.446589311072547e-01

 8	6.518363448688396e+04,0.000000000000000e+00
	0.000000000000000e+00,0.000000000000000e+00
	1.989599907548166e-12,2.206841615295483e-10
	4.794243411059302e+03,-4.308759960466555e+01
	0.000000000000000e+00,0.000000000000000e+00
	1.052043893695726e-13,1.170581455394868e-11
	-9.038359376548362e+01,8.148622382019112e-01
	9.038359376548362e+01,-8.148622382019112e-01

 9	8.239595534377472e+04,0.000000000000000e+00
	0.000000000000000e+00,0.000000000000000e+00
	1.989503779107829e-12,1.745753015334245e-10
	4.794011850954617e+03,-5.446263359236814e+01
	0.000000000000000e+00,0.000000000000000e+00
	1.051993063723944e-13,9.260050206799381e-12
	-9.037921455552041e+01,1.029984123364553e+00
	9.037921455552041e+01,-1.029984123364553e+00

 10	1.041533432502816e+05,0.000000000000000e+00
	0.000000000000000e+00,0.000000000000000e+00
	1.989350199091733e-12,1.380962414214802e-10
	4.793641900230715e+03,-6.883866399268234e+01
	0.000000000000000e+00,0.000000000000000e+00
	1.051911855001334e-13,7.325082229965587e-12
	-9.037221813488007e+01,1.301860125144738e+00
	9.037221813488007e+01,-1.301860125144738e+00

 11	1.316559637539366e+05,0.000000000000000e+00
	0.000000000000000e+00,0.000000000000000e+00
	1.989104850659661e-12,1.092347506093590e-10
	4.793050894862539e+03,-8.700539625705068e+01
	0.000000000000000e+00,0.000000000000000e+00
	1.051782121763705e-13,5.794175369329564e-12
	-9.036104118106034e+01,1.645424961573589e+00
	9.036104118106034e+01,-1.645424961573589e+00

 12	1.664208968340629e+05,0.000000000000000e+00
	0.000000000000000e+00,0.000000000000000e+00
	1.988712947108328e-12,8.639879484183031e-11
	4.792106862399263e+03,-1.099582794031063e+02
	0.000000000000000e+00,0.000000000000000e+00
	1.051574894368427e-13,4.582882976143950e-12
	-9.034318786226763e+01,2.079504323105971e+00
	9.034318786226763e+01,-2.079504323105971e+00

 13	2.103658209879285e+05,0.000000000000000e+00
	0.000000000000000e+00,0.000000000000000e+00
	1.988087066166920e-12,6.832871895078899e-11
	4.790599216688455e+03,-1.389500015208118e+02
	0.000000000000000e+00,0.000000000000000e+00
	1.051243946417677e-13,3.624388896102476e-12
	-9.031467562296606e+01,2.627788743125655e+00
	9.031467562296606e+01,-2.627788743125655e+00

 14	2.659147948472498e+05,0.000000000000000e+00
	0.000000000000000e+00,0.000000000000000e+00
	1.987087822526644e-12,5.402776550896141e-11
	4.788192201116110e+03,-1.755527105386738e+02
	0.000000000000000e+00,0.000000000000000e+00
	1.050715574944557e-13,2.865821955184729e-12
	-9.026915471343841e+01,3.320010301945492e+00
	9.026915471343841e+01,-3.320010301945492e+00

 15	3.361319713752956e+05,0.000000000000000e+00
	0.000000000000000e+00,0.000000000000000e+00
	1.985493269087688e-12,4.270709815009552e-11
	4.784351181176251e+03,-2.217308992078091e+02
	0.000000000000000e+00,0.000000000000000e+00
	1.049872420667155e-13,2.265339821309578e-12
	-9.019651425228564e+01,4.193321009863191e+00
	9.019651425228564e+01,-4.193321009863191e+00

 16	4.248906204919688e+05,0.000000000000000e+00
	0.000000000000000e+00,0.000000000000000e+00
	1.982950724411578e-12,3.374229986378474e-11
	4.778226604644151e+03,-2.799220068511416e+02
	0.000000000000000e+00,0.000000000000000e+00
	1.048527995722373e-13,1.789821536803480e-12
	-9.008068770865368e+01,5.293817127714076e+00
	9.008068770865368e+01,-5.293817127714076e+00

 17	5.370867836326226e+05,0.000000000000000e+00
	0.000000000000000e+00,0.000000000000000e+00
	1.978901619548354e-12,2.663895238141914e-11
	4.768472969769005e+03,-3.531153903916772e+02
	0.000000000000000e+00,0.000000000000000e+00
	1.046386944816462e-13,1.413041741607901e-12
	-8.989622927148390e+01,6.678032647436738e+00
	8.989622927148390e+01,-6.678032647436738e+00

 18	6.789093457013320e+05,0.000000000000000e+00
	0.000000000000000e+00,0.000000000000000e+00
	1.972465986539654e-12,2.100540916345686e-11
	4.752970576911920e+03,-4.449070498283677e+02
	0.000000000000000e+00,0.000000000000000e+00
	1.042983966047373e-13,1.114226467017370e-12
	-8.960305168226638e+01,8.413974246257400e+00
	8.960305168226638e+01,-8.413974246257400e+00

 19	8.581814219355045e+05,0.000000000000000e+00
	0.000000000000000e+00,0.000000000000000e+00
	1.962269270759521e-12,1.653128156643498e-11
	4.728408347607136e+03,-5.594814472328868e+02
	0.000000000000000e+00,0.000000000000000e+00
	1.037592234221262e-13,8.769119701768760e-13
	-8.913853660773798e+01,1.058077745049004e+01
	8.913853660773798e+01,-1.058077745049004e+01

 20	1.084791891021098e+06,0.000000000000000e+00
	0.000000000000000e+00,0.000000000000000e+00
	1.946193512869289e-12,1.297049119727946e-11
	4.689684462400404e+03,-7.014236905549292e+02
	0.000000000000000e+00,0.000000000000000e+00
	1.029091832982810e-13,6.880457624270398e-13
	-8.840619964436279e+01,1.326515469833359e+01
	8.840619964436279e+01,-1.326515469833359e+01

 21	1.371240878381039e+06,0.000000000000000e+00
	0.000000000000000e+00,0.000000000000000e+00
	1.921046558676544e-12,1.012802301690514e-11
	4.629109541211130e+03,-8.751845119910580e+02
	0.000000000000000e+00,0.000000000000000e+00
	1.015794842444457e-13,5.372839135801206e-13
	-8.726062105369567e+01,1.655127713507152e+01
	8.726062105369567e+01,-1.655127713507152e+01

 22	1.733329279197786e+06,0.000000000000000e+00
	0.000000000000000e+00,0.000000000000000e+00
	1.882187094391199e-12,7.849757226044592e-12
	4.535503414271522e+03,-1.083906569558818e+03
	0.000000000000000e+00,0.000000000000000e+00
	9.952470685483748e-14,4.164516208516158e-13
	-8.549036410789527e+01,2.049857790312393e+01
	8.549036410789527e+01,-2.049857790312393e+01

 23	2.191030356148301e+06,0.000000000000000e+00
	0.000000000000000e+00,0.000000000000000e+00
	1.823256431892064e-12,6.014953385637528e-12
	4.393549036470754e+03,-1.327223729442693e+03
	0.000000000000000e+00,0.000000000000000e+00
	9.640862187824857e-14,3.191443901764110e-13
	-8.280575647053173e+01,2.510013268649509e+01
	8.280575647053173e+01,-2.510013268649509e+01

 24	2.769591490305382e+06,0.000000000000000e+00
	0.000000000000000e+00,0.000000000000000e+00
	1.736388384558398e-12,4.531036725855243e-12
	4.184298044079837e+03,-1.597756469104627e+03
	0.000000000000000e+00,0.000000000000000e+00
	9.181528785207832e-14,2.404512432306851e-13
	-7.884845116588076e+01,3.021638159841070e+01
	7.884845116588076e+01,-3.021638159841070e+01

 25	3.500926859204499e+06,0.000000000000000e+00
	0.000000000000000e+00,0.000000000000000e+00
	1.613551235671976e-12,3.330120152820882e-12
	3.888403338312109e+03,-1.876781900568157e+03
	0.000000000000000e+00,0.000000000000000e+00
	8.532001055534671e-14,1.767699346246896e-13
	-7.325256043513049e+01,3.549324167961888e+01
	7.325256043513049e+01,-3.549324167961888e+01

 26	4.425377863992516e+06,0.000000000000000e+00
	0.000000000000000e+00,0.000000000000000e+00
	1.449684424490115e-12,2.365993114268497e-12
	3.493674851699893e+03,-2.131433856270638e+03
	0.000000000000000e+00,0.000000000000000e+00
	7.665520200185703e-14,1.256470383530672e-13
	-6.578754860411058e+01,4.030915557683346e+01
	6.578754860411058e+01,-4.030915557683346e+01

 27	5.593938413087826e+06,0.000000000000000e+00
	0.000000000000000e+00,0.000000000000000e+00
	1.247285256254944e-12,1.609411090804439e-12
	3.006128186252062e+03,-2.318096590808249e+03
	0.000000000000000e+00,0.000000000000000e+00
	6.595291255413600e-14,8.552832102879601e-14
	-5.656718131652544e+01,4.383927241904136e+01
	5.656718131652544e+01,-4.383927241904136e+01

 28	7.071067811865492e+06,0.000000000000000e+00
	0.000000000000000e+00,0.000000000000000e+00
	1.019786412464032e-12,1.039941629767458e-12
	2.458120486171651e+03,-2.395754605089073e+03
	0.000000000000000e+00,0.000000000000000e+00
	5.392342401175531e-14,5.532714951950923e-14
	-4.620338923574456e+01,4.530791652502187e+01
	4.620338923574456e+01,-4.530791652502187e+01

 29	8.938246420986334e+06,0.000000000000000e+00
	0.000000000000000e+00,0.000000000000000e+00
	7.896510359170064e-13,6.360233276389369e-13
	1.903761807649965e+03,-2.344961519195891e+03
	0.000000000000000e+00,0.000000000000000e+00
	4.175452315389652e-14,3.389849506113959e-14
	-3.571948895517554e+01,4.434732222886738e+01
	3.571948895517554e+01,-4.434732222886738e+01

 30	1.129847021806425e+07,0.000000000000000e+00
	0.000000000000000e+00,0.000000000000000e+00
	5.803756361816741e-13,3.688650730308102e-13
	1.399651419301588e+03,-2.178598153832614e+03
	0.000000000000000e+00,0.000000000000000e+00
	3.068863824050895e-14,1.971607108644485e-14
	-2.618587246590478e+01,4.120108815534903e+01
	2.618587246590478e+01,-4.120108815534903e+01

 31	1.428193218848380e+07,0.000000000000000e+00
	0.000000000000000e+00,0.000000000000000e+00
	4.077202257775976e-13,2.041598403376997e-13
	9.837526270899908e+02,-1.934629196429830e+03
	0.000000000000000e+00,0.000000000000000e+00
	2.155911368281023e-14,1.096273888677745e-14
	-1.832049283967975e+01,3.658719297877390e+01
	1.832049283967975e+01,-3.658719297877390e+01

 32	1.805320393820502e+07,0.000000000000000e+00
	0.000000000000000e+00,0.000000000000000e+00
	2.763564172106652e-13,1.087542120529741e-13
	6.673185854633253e+02,-1.657573056858603e+03
	0.000000000000000e+00,0.000000000000000e+00
	1.461297099606242e-14,5.883002920540845e-15
	-1.233616707837657e+01,3.134755768568945e+01
	1.233616707837657e+01,-3.134755768568945e+01

 33	2.282031367557007e+07,0.000000000000000e+00
	0.000000000000000e+00,0.000000000000000e+00
	1.824360756984061e-13,5.619579193326852e-14
	4.410797638303654e+02,-1.383189498493992e+03
	0.000000000000000e+00,0.000000000000000e+00
	9.646731813059504e-15,3.076207702901121e-15
	-8.057592018513697e+00,2.615846163680780e+01
	8.057592018513697e+00,-2.615846163680780e+01

 34	2.884622131528353e+07,0.000000000000000e+00
	0.000000000000000e+00,0.000000000000000e+00
	1.182321431747616e-13,2.831926988372762e-14
	2.864229365220003e+02,-1.133116769834707e+03
	0.000000000000000e+00,0.000000000000000e+00
	6.251811391461708e-15,1.580298010756090e-15
	-5.132758748696697e+00,2.142912122201713e+01
	5.132758748696697e+00,-2.142912122201713e+01

 35	3.646332368608564e+07,0.000000000000000e+00
	0.000000000000000e+00,0.000000000000000e+00
	7.567703112587679e-14,1.394179066478752e-14
	1.839145954258182e+02,-9.167941349430567e+02
	0.000000000000000e+00,0.000000000000000e+00
	4.001618712271300e-15,8.027495579053531e-16
	-3.194145377440570e+00,1.733804824366365e+01
	3.194145377440570e+00,-1.733804824366365e+01

 36	4.609178996806104e+07,0.000000000000000e+00
	0.000000000000000e+00,0.000000000000000e+00
	4.804542148775198e-14,6.682858672622082e-15
	1.173545435535773e+02,-7.357481330216775e+02
	0.000000000000000e+00,0.000000000000000e+00
	2.540538180924965e-15,4.052252193674278e-16
	-1.935377641063150e+00,1.391411057124245e+01
	1.935377641063150e+00,-1.391411057124245e+01

 37	5.826273876592718e+07,0.000000000000000e+00
	0.000000000000000e+00,0.000000000000000e+00
	3.034279541408698e-14,3.083867180015413e-15
	7.471179762845770e+01,-5.873587267828942e+02
	0.000000000000000e+00,0.000000000000000e+00
	1.604473917905291e-15,2.040884474659172e-16
	-1.128928479427191e+00,1.110775655656621e+01
	1.128928479427191e+00,-1.110775655656621e+01

 38	7.364753529552442e+07,0.000000000000000e+00
	0.000000000000000e+00,0.000000000000000e+00
	1.909856655135253e-14,1.332698010860437e-15
	4.762627980351783e+01,-4.673274488126675e+02
	0.000000000000000e+00,0.000000000000000e+00
	1.009911237662025e-15,1.029220845122864e-16
	-6.166941590777226e-01,8.837691917444968e+00
	6.166941590777226e-01,-8.837691917444968e+00

 39	9.309482475405906e+07,0.000000000000000e+00
	0.000000000000000e+00,0.000000000000000e+00
	1.199555238983985e-14,5.011090307894773e-16
	3.051627443343250e+01,-3.710365176053882e+02
	0.000000000000000e+00,0.000000000000000e+00
	6.343241528248949e-16,5.217063283228153e-17
	-2.931147251712245e-01,7.016582871167779e+00
	2.931147251712245e-01,-7.016582871167779e+00

 40	1.176773446825130e+08,0.000000000000000e+00
	0.000000000000000e+00,0.000000000000000e+00
	7.524071673111382e-15,1.209327786939405e-16
	1.974520501537430e+01,-2.941916435568360e+02
	0.000000000000000e+00,0.000000000000000e+00
	3.978850339861315e-16,2.670477472990337e-17
	-8.941631346984907e-02,5.563212543021218e+00
	8.941631346984907e-02,-5.563212543021218e+00

 41	1.487510985504399e+08,0.000000000000000e+00
	0.000000000000000e+00,0.000000000000000e+00
	4.715325869200889e-15,-4.122987315089413e-17
	1.297939353577973e+01,-2.330656691828544e+02
	0.000000000000000e+00,0.000000000000000e+00
	2.493665840248815e-16,1.388718913463263e-17
	3.853470589819902e-02,4.407088397260456e+00
	-3.853470589819902e-02,-4.407088397260456e+00

 42	1.880301546543203e+08,0.000000000000000e+00
	0.000000000000000e+00,0.000000000000000e+00
	2.953438948508245e-15,-1.005513820275409e-16
	8.735294882362773e+00,-1.845426914072465e+02
	0.000000000000000e+00,0.000000000000000e+00
	1.562030388314136e-16,7.393842559185638e-18
	1.187942488372951e-01,3.489276370947839e+00
	-1.187942488372951e-01,-3.489276370947839e+00

 43	2.376811963330745e+08,0.000000000000000e+00
	0.000000000000000e+00,0.000000000000000e+00
	1.849182380693520e-15,-1.132271770494674e-16
	6.075320915486668e+00,-1.460736035924728e+02
	0.000000000000000e+00,0.000000000000000e+00
	9.781310606670386e-17,4.068127262428840e-18
	1.690929001369151e-01,2.761559722512069e+00
	-1.690929001369151e-01,-2.761559722512069e+00

 44	3.004430390124316e+08,0.000000000000000e+00
	0.000000000000000e+00,0.000000000000000e+00
	1.157466530791656e-15,-1.062617234378466e-16
	4.409090679396259e+00,-1.155997663748243e+02
	0.000000000000000e+00,0.000000000000000e+00
	6.123714598047410e-17,2.335645979593762e-18
	2.005944301832428e-01,2.184995045145600e+00
	-2.005944301832428e-01,-2.184995045145600e+00

 45	3.797777067923002e+08,0.000000000000000e+00
	0.000000000000000e+00,0.000000000000000e+00
	7.243161490410156e-16,-9.232661665009283e-17
	3.365703006270621e+00,-9.147165299400949e+01
	0.000000000000000e+00,0.000000000000000e+00
	3.833338678498319e-17,1.410478447909997e-18
	2.203110382001676e-01,1.728373123268923e+00
	-2.203110382001676e-01,-1.728373123268923e+00

 46	4.800614021563349e+08,0.000000000000000e+00
	0.000000000000000e+00,0.000000000000000e+00
	4.531361232370754e-16,-7.712710930398202e-17
	2.712476236937839e+00,-7.237392031294137e+01
	0.000000000000000e+00,0.000000000000000e+00
	2.399415390823782e-17,8.992683002400036e-19
	2.326396373083807e-01,1.366801171631053e+00
	-2.326396373083807e-01,-1.366801171631053e+00

 47	6.068259029389102e+08,0.000000000000000e+00
	0.000000000000000e+00,0.000000000000000e+00
	2.833825488903433e-16,-6.303313684769881e-17
	2.303570354014427e+00,-5.726084128091855e+01
	0.000000000000000e+00,0.000000000000000e+00
	1.501805689460836e-17,6.041676975649006e-19
	2.403327187933539e-01,1.080480868308447e+00
	-2.403327187933539e-01,-1.080480868308447e+00

 48	7.670637023171984e+08,0.000000000000000e+00
	0.000000000000000e+00,0.000000000000000e+00
	1.771289773991712e-16,-5.085669185033418e-17
	2.047627345847731e+00,-4.530258782017285e+01
	0.000000000000000e+00,0.000000000000000e+00
	9.399650595712384e-18,4.248539107212784e-19
	2.451090841444858e-01,8.536914188899390e-01
	-2.451090841444858e-01,-8.536914188899390e-01

 49	9.696137237434326e+08,0.000000000000000e+00
	0.000000000000000e+00,0.000000000000000e+00
	1.106255462673401e-16,-4.071334408774277e-17
	1.887438659318117e+00,-3.584142388225352e+01
	0.000000000000000e+00,0.000000000000000e+00
	5.883105445629986e-18,3.098091384819395e-19
	2.480363876864984e-01,6.739598894863934e-01
	-2.480363876864984e-01,-6.739598894863934e-01

 50	1.225648887349948e+09,0.000000000000000e+00
	0.000000000000000e+00,0.000000000000000e+00
	6.900320553474191e-17,-3.243343956499623e-17
	1.787188749936211e+00,-2.835639918375923e+01
	0.000000000000000e+00,0.000000000000000e+00
	3.682181043006729e-18,2.320729262077483e-19
	2.497692396070713e-01,5.313922423283058e-01
	-2.497692396070713e-01,-5.313922423283058e-01

 51	1.549292422618043e+09,0.000000000000000e+00
	0.000000000000000e+00,0.000000000000000e+00
	4.295426757892529e-17,-2.575331805171362e-17
	1.724459375902464e+00,-2.243509636990339e+01
	0.000000000000000e+00,0.000000000000000e+00
	2.304701445566586e-18,1.771494069352363e-19
	2.506954527435233e-01,4.181379477526621e-01
	-2.506954527435233e-01,-4.181379477526621e-01

 52	1.958396923911496e+09,0.000000000000000e+00
	0.000000000000000e+00,0.000000000000000e+00
	2.665296572593138e-17,-2.040012770440204e-17
	1.685221002716337e+00,-1.775112147584244e+01
	0.000000000000000e+00,0.000000000000000e+00
	1.442597613287867e-18,1.369544904354162e-19
	2.510229752690420e-01,3.279639644031928e-01
	-2.510229752690420e-01,-3.279639644031928e-01

 53	2.475529122581628e+09,0.000000000000000e+00
	0.000000000000000e+00,0.000000000000000e+00
	1.645330765971410e-17,-1.612599781517844e-17
	1.660696711100043e+00,-1.404621937117660e+01
