Title: voltage divider netlist
Date: Thu Nov 28 21:11:14  2024
Plotname: DC transfer characteristic
Flags: real
No. Variables: 4
No. Points: 51      
Variables:
	0	v(v-sweep)	voltage
	1	v(in)	voltage
	2	v(out)	voltage
	3	i(v1)	current
Values:
0		0.000000000000000e+00
	0.000000000000000e+00
	0.000000000000000e+00
	0.000000000000000e+00
1		1.000000000000000e-01
	1.000000000000000e-01
	6.666666666666667e-02
	-3.333333333333333e-05
2		2.000000000000000e-01
	2.000000000000000e-01
	1.333333333333333e-01
	-6.666666666666667e-05
3		3.000000000000000e-01
	3.000000000000000e-01
	2.000000000000000e-01
	-1.000000000000000e-04
4		4.000000000000000e-01
	4.000000000000000e-01
	2.666666666666667e-01
	-1.333333333333333e-04
5		5.000000000000000e-01
	5.000000000000000e-01
	3.333333333333333e-01
	-1.666666666666667e-04
6		6.000000000000000e-01
	6.000000000000000e-01
	4.000000000000000e-01
	-2.000000000000000e-04
7		7.000000000000000e-01
	7.000000000000000e-01
	4.666666666666666e-01
	-2.333333333333334e-04
8		7.999999999999999e-01
	7.999999999999999e-01
	5.333333333333332e-01
	-2.666666666666667e-04
9		8.999999999999999e-01
	8.999999999999999e-01
	6.000000000000000e-01
	-3.000000000000000e-04
10		9.999999999999999e-01
	9.999999999999999e-01
	6.666666666666665e-01
	-3.333333333333333e-04
11		1.100000000000000e+00
	1.100000000000000e+00
	7.333333333333332e-01
	-3.666666666666666e-04
12		1.200000000000000e+00
	1.200000000000000e+00
	7.999999999999999e-01
	-4.000000000000000e-04
13		1.300000000000000e+00
	1.300000000000000e+00
	8.666666666666667e-01
	-4.333333333333334e-04
14		1.400000000000000e+00
	1.400000000000000e+00
	9.333333333333335e-01
	-4.666666666666668e-04
15		1.500000000000000e+00
	1.500000000000000e+00
	1.000000000000000e+00
	-5.000000000000002e-04
16		1.600000000000000e+00
	1.600000000000000e+00
	1.066666666666667e+00
	-5.333333333333334e-04
17		1.700000000000000e+00
	1.700000000000000e+00
	1.133333333333334e+00
	-5.666666666666667e-04
18		1.800000000000000e+00
	1.800000000000000e+00
	1.200000000000000e+00
	-6.000000000000003e-04
19		1.900000000000001e+00
	1.900000000000001e+00
	1.266666666666667e+00
	-6.333333333333336e-04
20		2.000000000000000e+00
	2.000000000000000e+00
	1.333333333333333e+00
	-6.666666666666670e-04
21		2.100000000000001e+00
	2.100000000000001e+00
	1.400000000000000e+00
	-7.000000000000003e-04
22		2.200000000000001e+00
	2.200000000000001e+00
	1.466666666666667e+00
	-7.333333333333334e-04
23		2.300000000000001e+00
	2.300000000000001e+00
	1.533333333333334e+00
	-7.666666666666670e-04
24		2.400000000000001e+00
	2.400000000000001e+00
	1.600000000000000e+00
	-8.000000000000004e-04
25		2.500000000000001e+00
	2.500000000000001e+00
	1.666666666666667e+00
	-8.333333333333337e-04
26		2.600000000000001e+00
	2.600000000000001e+00
	1.733333333333334e+00
	-8.666666666666671e-04
27		2.700000000000001e+00
	2.700000000000001e+00
	1.800000000000000e+00
	-9.000000000000004e-04
28		2.800000000000001e+00
	2.800000000000001e+00
	1.866666666666667e+00
	-9.333333333333340e-04
29		2.900000000000001e+00
	2.900000000000001e+00
	1.933333333333334e+00
	-9.666666666666671e-04
30		3.000000000000001e+00
	3.000000000000001e+00
	2.000000000000001e+00
	-1.000000000000000e-03
31		3.100000000000001e+00
	3.100000000000001e+00
	2.066666666666668e+00
	-1.033333333333334e-03
32		3.200000000000002e+00
	3.200000000000002e+00
	2.133333333333334e+00
	-1.066666666666667e-03
33		3.300000000000002e+00
	3.300000000000002e+00
	2.200000000000001e+00
	-1.100000000000001e-03
34		3.400000000000002e+00
	3.400000000000002e+00
	2.266666666666667e+00
	-1.133333333333334e-03
35		3.500000000000002e+00
	3.500000000000002e+00
	2.333333333333334e+00
	-1.166666666666667e-03
36		3.600000000000002e+00
	3.600000000000002e+00
	2.400000000000001e+00
	-1.200000000000001e-03
37		3.700000000000002e+00
	3.700000000000002e+00
	2.466666666666668e+00
	-1.233333333333334e-03
38		3.800000000000002e+00
	3.800000000000002e+00
	2.533333333333335e+00
	-1.266666666666668e-03
39		3.900000000000002e+00
	3.900000000000002e+00
	2.600000000000001e+00
	-1.300000000000001e-03
40		4.000000000000002e+00
	4.000000000000002e+00
	2.666666666666668e+00
	-1.333333333333334e-03
41		4.100000000000001e+00
	4.100000000000001e+00
	2.733333333333334e+00
	-1.366666666666668e-03
42		4.200000000000001e+00
	4.200000000000001e+00
	2.800000000000001e+00
	-1.400000000000001e-03
43		4.300000000000001e+00
	4.300000000000001e+00
	2.866666666666667e+00
	-1.433333333333334e-03
44		4.400000000000000e+00
	4.400000000000000e+00
	2.933333333333333e+00
	-1.466666666666667e-03
45		4.500000000000000e+00
	4.500000000000000e+00
	3.000000000000000e+00
	-1.500000000000000e-03
46		4.600000000000000e+00
	4.600000000000000e+00
	3.066666666666666e+00
	-1.533333333333334e-03
47		4.699999999999999e+00
	4.699999999999999e+00
	3.133333333333333e+00
	-1.566666666666666e-03
48		4.799999999999999e+00
	4.799999999999999e+00
	3.199999999999999e+00
	-1.600000000000000e-03
49		4.899999999999999e+00
	4.899999999999999e+00
	3.266666666666666e+00
	-1.633333333333333e-03
50		4.999999999999998e+00
	4.999999999999998e+00
	3.333333333333332e+00
	-1.666666666666666e-03
