Title: a simple bipolar circuit
Date: Mon Jul  6 16:55:30  2026
Command: ngspice-46, Build Mar 29 2026   14:56:48
Plotname: Noise Spectral Density Curves
Flags: real
No. Variables: 3
No. Points: 84
Variables:
	0	frequency	frequency grid=3
	1	onoise_q1	voltage-density
	2	onoise_spectrum	voltage-density
Values:
 0	5.000000000000000e-01
	1.653154764033754e-06
	1.664289825193611e-06

 1	6.294627058970836e-01
	1.474499027307190e-06
	1.486972538389764e-06

 2	7.924465962305568e-01
	1.315407913398558e-06
	1.329375013691373e-06

 3	9.976311574844400e-01
	1.173769937399666e-06
	1.189401452134021e-06

 4	1.255943215754790e+00
	1.047705027829850e-06
	1.065188140064988e-06

 5	1.581138830084190e+00
	9.355395079588915e-07
	9.550780697654520e-07

 6	1.990535852767487e+00
	8.357837884339669e-07
	8.575980931669651e-07

 7	2.505936168136362e+00
	7.471124653478936e-07
	7.714382569410361e-07

 8	3.154786722400968e+00
	6.683465467816801e-07
	6.954329982019255e-07

 9	3.971641173621409e+00
	5.984375555351806e-07
	6.285439175321231e-07

 10	5.000000000000003e+00
	5.364532767649293e-07
	5.698438966430106e-07

 11	6.294627058970840e+00
	4.815649373729842e-07
	5.185023985411715e-07

 12	7.924465962305573e+00
	4.330356204751758e-07
	4.737718828514222e-07

 13	9.976311574844406e+00
	3.902097350264565e-07
	4.349753851435037e-07

 14	1.255943215754791e+01
	3.525033804377459e-07
	4.014954315769885e-07

 15	1.581138830084191e+01
	3.193954723264821e-07
	3.727645585049042e-07

 16	1.990535852767488e+01
	2.904195322229632e-07
	3.482577393191949e-07

 17	2.505936168136364e+01
	2.651560938641884e-07
	3.274869499018588e-07

 18	3.154786722400970e+01
	2.432257410074178e-07
	3.099979181251424e-07

 19	3.971641173621413e+01
	2.242828595380837e-07
	2.953688356855142e-07

 20	5.000000000000007e+01
	2.080102447512027e-07
	2.832105395435457e-07

 21	6.294627058970845e+01
	1.941147308357264e-07
	2.731674873747550e-07

 22	7.924465962305580e+01
	1.823239817109580e-07
	2.649188199696571e-07

 23	9.976311574844414e+01
	1.723844906222835e-07
	2.581789274521656e-07

 24	1.255943215754792e+02
	1.640606941130680e-07
	2.526971624481017e-07

 25	1.581138830084192e+02
	1.571349532726989e-07
	2.482565927644622e-07

 26	1.990535852767490e+02
	1.514080424689145e-07
	2.446718906545484e-07

 27	2.505936168136366e+02
	1.466997524034471e-07
	2.417865804115532e-07

 28	3.154786722400972e+02
	1.428492687711944e-07
	2.394699099282385e-07

 29	3.971641173621416e+02
	1.397151054819668e-07
	2.376135953698248e-07

 30	5.000000000000010e+02
	1.371745096688137e-07
	2.361286379351988e-07

 31	6.294627058970849e+02
	1.351223747294284e-07
	2.349423506200374e-07

 32	7.924465962305584e+02
	1.334697745789919e-07
	2.339956757840381e-07

 33	9.976311574844419e+02
	1.321422636582842e-07
	2.332408283555837e-07

 34	1.255943215754793e+03
	1.310780827943322e-07
	2.326392664192799e-07

 35	1.581138830084193e+03
	1.302263853148140e-07
	2.321599693827633e-07

 36	1.990535852767491e+03
	1.295455639948751e-07
	2.317779912696358e-07

 37	2.505936168136367e+03
	1.290017263473017e-07
	2.314732500575535e-07

 38	3.154786722400974e+03
	1.285673379161477e-07
	2.312295107345078e-07

 39	3.971641173621417e+03
	1.282200317139416e-07
	2.310335175737432e-07

 40	5.000000000000013e+03
	1.279415657960169e-07
	2.308742279179160e-07

 41	6.294627058970853e+03
	1.277168981277896e-07
	2.307420933312883e-07

 42	7.924465962305589e+03
	1.275333357173604e-07
	2.306283216869100e-07

 43	9.976311574844425e+03
	1.273797003281052e-07
	2.305240320180186e-07

 44	1.255943215754794e+04
	1.272454321651769e-07
	2.304191776148552e-07

 45	1.581138830084194e+04
	1.271195209200907e-07
	2.303010544021977e-07

 46	1.990535852767492e+04
	1.269891042033298e-07
	2.301521206140673e-07

 47	2.505936168136369e+04
	1.268374990324725e-07
	2.299467168494711e-07

 48	3.154786722400976e+04
	1.266413251772369e-07
	2.296460794855805e-07

 49	3.971641173621421e+04
	1.263662384982937e-07
	2.291907829816924e-07

 50	5.000000000000017e+04
	1.259606401412650e-07
	2.284894681959315e-07

 51	6.294627058970858e+04
	1.253466519319327e-07
	2.274025749173620e-07

 52	7.924465962305595e+04
	1.244078959732897e-07
	2.257202447491863e-07

 53	9.976311574844434e+04
	1.229747512770040e-07
	2.231356192690718e-07

 54	1.255943215754795e+05
	1.208108181921370e-07
	2.192203089788847e-07

 55	1.581138830084196e+05
	1.176105221406044e-07
	2.134200659351379e-07

 56	1.990535852767494e+05
	1.130265686621821e-07
	2.051046359442944e-07

 57	2.505936168136371e+05
	1.067499522901357e-07
	1.937130159149694e-07

 58	3.154786722400979e+05
	9.864629385691740e-08
	1.790009840774740e-07

 59	3.971641173621424e+05
	8.889722824268429e-08
	1.612978212891497e-07

 60	5.000000000000020e+05
	7.804150429117921e-08
	1.415809774663303e-07

 61	6.294627058970862e+05
	6.684591363318221e-08
	1.212417804813494e-07

 62	7.924465962305600e+05
	5.606951177434080e-08
	1.016573717077082e-07

 63	9.976311574844440e+05
	4.626967977473561e-08
	8.383855159085313e-08

 64	1.255943215754795e+06
	3.773779754757027e-08
	6.831290636368516e-08

 65	1.581138830084197e+06
	3.054155360408564e-08
	5.520153232040692e-08

 66	1.990535852767495e+06
	2.460642804921812e-08
	4.436689744186378e-08

 67	2.505936168136373e+06
	1.978868239428437e-08
	3.554532016935176e-08

 68	3.154786722400981e+06
	1.592407752631747e-08
	2.843545310679202e-08

 69	3.971641173621426e+06
	1.285453755475986e-08
	2.274686421946739e-08

 70	5.000000000000023e+06
	1.043993406573981e-08
	1.822185060381362e-08

 71	6.294627058970866e+06
	8.561267778042278e-09
	1.464202222076492e-08

 72	7.924465962305605e+06
	7.119364950724249e-09
	1.182722715042258e-08

 73	9.976311574844446e+06
	6.031516171414503e-09
	9.631084174162644e-09

 74	1.255943215754796e+07
	5.227591077467498e-09
	7.935267337267321e-09

 75	1.581138830084197e+07
	4.646802211466209e-09
	6.643540554907058e-09

 76	1.990535852767496e+07
	4.235908347053078e-09
	5.676097878406284e-09

 77	2.505936168136374e+07
	3.948849167525961e-09
	4.964773097151372e-09

 78	3.154786722400982e+07
	3.746943146378279e-09
	4.449747233136435e-09

 79	3.971641173621428e+07
	3.598621108602050e-09
	4.078025723883165e-09

 80	5.000000000000026e+07
	3.478288894148866e-09
	3.803169944930572e-09

 81	6.294627058970869e+07
	3.364655143804620e-09
	3.585294775045909e-09

 82	7.924465962305610e+07
	3.239272146799929e-09
	3.390795723933768e-09

 83	9.976311574844453e+07
	3.086163277879660e-09
	3.192240890626697e-09

